date Sat Feb 17 05:52:31.414 pm 2024
base hex  timestamps absolute
internal events logged
// version 11.0.0
   0.000013 CAN 1 Status:chip status error active
   0.000107 1  284             Tx   d 8 00 00 00 00 00 00 00 00  Length = 246000 BitCount = 126 ID = 644
   0.001161 1  285             Tx   d 8 00 00 00 00 00 00 00 00  Length = 248000 BitCount = 127 ID = 645
   0.004161 1  161             Tx   d 5 32 22 5D 00 10  Length = 176000 BitCount = 91 ID = 353
   0.004169 1  1F9             Tx   d 6 20 1E 1C 7E F8 FF  Length = 194000 BitCount = 100 ID = 505
   0.004172 1  181             Tx   d 8 1C 7E 32 10 32 20 42 4E  Length = 228000 BitCount = 117 ID = 385
   0.009166 1  1A5             Tx   d 8 9F FF 01 00 00 00 00 00  Length = 238000 BitCount = 122 ID = 421
   0.010185 1  244             Tx   d 7 FE FE 00 00 00 00 FE  Length = 222000 BitCount = 114 ID = 580
   0.011158 1  354             Tx   d 8 00 00 00 00 00 00 00 00  Length = 244000 BitCount = 125 ID = 852
   0.011165 1  161             Tx   d 5 32 22 5D 00 10  Length = 176000 BitCount = 91 ID = 353
   0.011187 1  1F9             Tx   d 6 20 1E 1C 7E F8 FF  Length = 194000 BitCount = 100 ID = 505
   0.012165 1  181             Tx   d 8 1C 7E 32 10 32 20 42 4E  Length = 228000 BitCount = 117 ID = 385
   0.018196 1  1A5             Tx   d 8 AF FF 01 00 00 00 00 00  Length = 242000 BitCount = 124 ID = 421
   0.020173 1  284             Tx   d 8 00 00 00 00 00 00 00 00  Length = 246000 BitCount = 126 ID = 644
   0.021138 1  285             Tx   d 8 00 00 00 00 00 00 00 00  Length = 248000 BitCount = 127 ID = 645
   0.021165 1  161             Tx   d 5 32 22 5D 00 10  Length = 176000 BitCount = 91 ID = 353
   0.021168 1  1F9             Tx   d 6 20 1E 1C 7E F8 FF  Length = 194000 BitCount = 100 ID = 505
   0.022110 1  181             Tx   d 8 1C 7E 32 10 32 20 42 4E  Length = 228000 BitCount = 117 ID = 385
   0.029112 1  1A5             Tx   d 8 BF FF 01 00 00 00 00 00  Length = 238000 BitCount = 122 ID = 421
   0.030081 1  244             Tx   d 7 FE FE 00 00 00 00 FE  Length = 222000 BitCount = 114 ID = 580
   0.032092 1  1A5             Tx   d 8 3D E3 F7 8F 02 1F 0B 79  Length = 230000 BitCount = 118 ID = 421
   0.033088 1  161             Tx   d 5 32 22 5D 00 10  Length = 176000 BitCount = 91 ID = 353
   0.034113 1  1F9             Tx   d 6 20 1E 1C 7E F8 FF  Length = 194000 BitCount = 100 ID = 505
   0.034121 1  181             Tx   d 8 1C 7E 32 10 32 20 42 4E  Length = 228000 BitCount = 117 ID = 385
   0.038129 1  1A5             Tx   d 8 CF FF 01 00 00 00 00 00  Length = 242000 BitCount = 124 ID = 421
   0.040129 1  284             Tx   d 8 00 00 00 00 00 00 00 00  Length = 246000 BitCount = 126 ID = 644
   0.041128 1  285             Tx   d 8 00 00 00 00 00 00 00 00  Length = 248000 BitCount = 127 ID = 645
   0.041136 1  161             Tx   d 5 32 22 5D 00 10  Length = 176000 BitCount = 91 ID = 353
   0.042129 1  1F9             Tx   d 6 20 1E 1C 80 F8 FF  Length = 196000 BitCount = 101 ID = 505
   0.042137 1  181             Tx   d 8 1C 80 32 10 32 20 42 4E  Length = 228000 BitCount = 117 ID = 385
   0.049127 1  1A5             Tx   d 8 DF FF 01 00 00 00 00 00  Length = 238000 BitCount = 122 ID = 421
   0.050112 1  244             Tx   d 7 FE FE 00 00 00 00 FE  Length = 222000 BitCount = 114 ID = 580
   0.051109 1  354             Tx   d 8 00 00 00 00 00 00 00 00  Length = 244000 BitCount = 125 ID = 852
   0.051116 1  161             Tx   d 5 32 22 5D 00 10  Length = 176000 BitCount = 91 ID = 353
   0.051139 1  1F9             Tx   d 6 20 1E 1C 80 F8 FF  Length = 196000 BitCount = 101 ID = 505
   0.052045 1  181             Tx   d 8 1C 80 32 10 32 20 42 4E  Length = 228000 BitCount = 117 ID = 385
   0.058084 1  1A5             Tx   d 8 EF FF 01 00 00 00 00 00  Length = 240000 BitCount = 123 ID = 421
   0.059102 1  161             Tx   d 5 81 E3 75 6C 0D  Length = 174000 BitCount = 90 ID = 353
   0.060087 1  284             Tx   d 8 00 00 00 00 00 00 00 00  Length = 246000 BitCount = 126 ID = 644
   0.061025 1  285             Tx   d 8 00 00 00 00 00 00 00 00  Length = 248000 BitCount = 127 ID = 645
   0.061033 1  161             Tx   d 5 32 22 5D 00 10  Length = 176000 BitCount = 91 ID = 353
   0.061035 1  1F9             Tx   d 6 20 1E 1C 80 F8 FF  Length = 196000 BitCount = 101 ID = 505
   0.062022 1  181             Tx   d 8 1C 80 32 10 32 20 42 4E  Length = 228000 BitCount = 117 ID = 385
   0.065072 1  161             Tx   d 5 B1 B6 90 51 81  Length = 174000 BitCount = 90 ID = 353
   0.069076 1  1A5             Tx   d 8 FF FF 01 00 00 00 00 00  Length = 240000 BitCount = 123 ID = 421
   0.070069 1  244             Tx   d 7 FE FE 00 00 00 00 FE  Length = 222000 BitCount = 114 ID = 580
   0.071039 1  1A5             Tx   d 8 65 F4 2A B0 88 F5 50 1F  Length = 224000 BitCount = 115 ID = 421
   0.071046 1  161             Tx   d 5 32 22 5D 00 10  Length = 176000 BitCount = 91 ID = 353
   0.071051 1  1F9             Tx   d 6 20 1E 1C 5A F8 FF  Length = 192000 BitCount = 99 ID = 505
   0.071994 1  181             Tx   d 8 1C 5A 32 10 32 20 42 4E  Length = 224000 BitCount = 115 ID = 385
   0.078036 1  1A5             Tx   d 8 0F FF 01 00 00 00 00 00  Length = 240000 BitCount = 123 ID = 421
   0.080038 1  284             Tx   d 8 00 00 00 00 00 00 00 00  Length = 246000 BitCount = 126 ID = 644
   0.081031 1  285             Tx   d 8 00 00 00 00 00 00 00 00  Length = 248000 BitCount = 127 ID = 645
   0.081038 1  161             Tx   d 5 32 22 5D 00 10  Length = 176000 BitCount = 91 ID = 353
   0.082027 1  551             Tx   d 8 68 5B 71 88 FF 7A 00 5D  Length = 222000 BitCount = 114 ID = 1361
   0.082035 1  1F9             Tx   d 6 20 1E 1C 5A F8 FF  Length = 192000 BitCount = 99 ID = 505
   0.082037 1  181             Tx   d 8 1C 5A 32 10 32 20 42 4E  Length = 224000 BitCount = 115 ID = 385
   0.082039 1  511             Tx   d 7 00 00 00 00 00 00 00  Length = 224000 BitCount = 115 ID = 1297
   0.083028 1  5DD             Tx   d 3 4C 00 00  Length = 144000 BitCount = 75 ID = 1501
   0.083036 1  65C             Tx   d 1 78  Length = 108000 BitCount = 57 ID = 1628
   0.085021 1  161             Tx   d 5 7F 15 20 33 D0  Length = 172000 BitCount = 89 ID = 353
   0.088994 1  1A5             Tx   d 8 1F FF 01 00 00 00 00 00  Length = 240000 BitCount = 123 ID = 421
   0.091032 1  244             Tx   d 7 FE FE 00 00 00 00 FE  Length = 222000 BitCount = 114 ID = 580
   0.091040 1  354             Tx   d 8 00 00 00 00 00 00 00 00  Length = 244000 BitCount = 125 ID = 852
   0.091044 1  161             Tx   d 5 32 22 5D 00 10  Length = 176000 BitCount = 91 ID = 353
   0.091047 1  1F9             Tx   d 6 20 1E 1C 5A F8 FF  Length = 192000 BitCount = 99 ID = 505
   0.091944 1  181             Tx   d 8 1C 5A 32 10 32 20 42 4E  Length = 224000 BitCount = 115 ID = 385
   0.093994 1  1A5             Tx   d 8 6E 78 85 EF F5 05 F2 72  Length = 222000 BitCount = 114 ID = 421
   0.097983 1  1A5             Tx   d 8 2F FF 01 00 00 00 00 00  Length = 240000 BitCount = 123 ID = 421
   0.099977 1  1A5             Tx   d 8 30 7A D1 72 E1 FE 06 45  Length = 228000 BitCount = 117 ID = 421
   0.100994 1  284             Tx   d 8 00 00 00 00 00 00 00 00  Length = 246000 BitCount = 126 ID = 644
   0.101005 1  285             Tx   d 8 00 00 00 00 00 00 00 00  Length = 248000 BitCount = 127 ID = 645
   0.101980 1  161             Tx   d 5 32 22 5D 00 10  Length = 176000 BitCount = 91 ID = 353
   0.101988 1  1F9             Tx   d 6 20 1E 1C 50 F8 FF  Length = 192000 BitCount = 99 ID = 505
   0.102970 1  181             Tx   d 8 1C 50 32 10 32 20 42 4E  Length = 226000 BitCount = 116 ID = 385
   0.108931 1  1A5             Tx   d 8 3F FF 01 00 00 00 00 00  Length = 242000 BitCount = 124 ID = 421
   0.110857 1  244             Tx   d 7 FE FE 00 00 00 00 FE  Length = 222000 BitCount = 114 ID = 580
   0.110869 1  161             Tx   d 5 32 22 5D 00 10  Length = 176000 BitCount = 91 ID = 353
   0.111851 1  1F9             Tx   d 6 20 1E 1C 50 F8 FF  Length = 192000 BitCount = 99 ID = 505
   0.111857 1  181             Tx   d 8 1C 50 32 10 32 20 42 4E  Length = 226000 BitCount = 116 ID = 385
   0.114913 1  181             Tx   d 8 1C 50 32 10 32 20 42 4E  Length = 226000 BitCount = 116 ID = 385
   0.117878 1  1A5             Tx   d 8 4F FF 01 00 00 00 00 00  Length = 238000 BitCount = 122 ID = 421
   0.120902 1  284             Tx   d 8 00 00 00 00 00 00 00 00  Length = 246000 BitCount = 126 ID = 644
   0.120908 1  285             Tx   d 8 00 00 00 00 00 00 00 00  Length = 248000 BitCount = 127 ID = 645
   0.121925 1  161             Tx   d 5 32 22 5D 00 10  Length = 176000 BitCount = 91 ID = 353
   0.121934 1  1F9             Tx   d 6 20 1E 1C 50 F8 FF  Length = 192000 BitCount = 99 ID = 505
   0.121936 1  181             Tx   d 8 1C 50 32 10 32 20 42 4E  Length = 226000 BitCount = 116 ID = 385
   0.128880 1  1A5             Tx   d 8 5F FF 01 00 00 00 00 00  Length = 240000 BitCount = 123 ID = 421
   0.130900 1  244             Tx   d 7 FE FE 00 00 00 00 FE  Length = 222000 BitCount = 114 ID = 580
   0.130912 1  354             Tx   d 8 00 00 00 00 00 00 00 00  Length = 244000 BitCount = 125 ID = 852
   0.133862 1  161             Tx   d 5 32 22 5D 00 10  Length = 176000 BitCount = 91 ID = 353
   0.133870 1  1F9             Tx   d 6 20 1E 1C 50 F8 FF  Length = 192000 BitCount = 99 ID = 505
   0.133872 1  181             Tx   d 8 1C 50 32 10 32 20 42 4E  Length = 226000 BitCount = 116 ID = 385
   0.137869 1  1A5             Tx   d 8 6F FF 01 00 00 00 00 00  Length = 238000 BitCount = 122 ID = 421
   0.140813 1  284             Tx   d 8 00 00 00 00 00 00 00 00  Length = 246000 BitCount = 126 ID = 644
   0.140845 1  285             Tx   d 8 00 00 00 00 00 00 00 00  Length = 248000 BitCount = 127 ID = 645
   0.140848 1  161             Tx   d 5 32 22 5D 00 10  Length = 176000 BitCount = 91 ID = 353
   0.141816 1  1F9             Tx   d 6 20 1E 1C 3C F8 FF  Length = 194000 BitCount = 100 ID = 505
   0.141825 1  181             Tx   d 8 1C 3C 32 10 32 20 42 4E  Length = 224000 BitCount = 115 ID = 385
   0.143838 1  161             Tx   d 5 32 19 E8 8F EC  Length = 172000 BitCount = 89 ID = 353
   0.147836 1  161             Tx   d 5 56 08 F6 9A D9  Length = 170000 BitCount = 88 ID = 353
   0.148840 1  1A5             Tx   d 8 7F FF 01 00 00 00 00 00  Length = 240000 BitCount = 123 ID = 421
   0.150839 1  244             Tx   d 7 FE FE 00 00 00 00 FE  Length = 222000 BitCount = 114 ID = 580
   0.151838 1  161             Tx   d 5 32 22 5D 00 10  Length = 176000 BitCount = 91 ID = 353
   0.151848 1  1F9             Tx   d 6 20 1E 1C 3C F8 FF  Length = 194000 BitCount = 100 ID = 505
   0.151851 1  181             Tx   d 8 1C 3C 32 10 32 20 42 4E  Length = 224000 BitCount = 115 ID = 385
   0.153818 1  1A5             Tx   d 8 42 10 59 61 08 CF C4 1B  Length = 224000 BitCount = 115 ID = 421
   0.157803 1  1A5             Tx   d 8 8F FF 01 00 00 00 00 00  Length = 238000 BitCount = 122 ID = 421
   0.160802 1  161             Tx   d 5 EF AC 3A 89 86  Length = 172000 BitCount = 89 ID = 353
   0.160812 1  284             Tx   d 8 00 00 00 00 00 00 00 00  Length = 246000 BitCount = 126 ID = 644
   0.160816 1  285             Tx   d 8 00 00 00 00 00 00 00 00  Length = 248000 BitCount = 127 ID = 645
   0.161789 1  161             Tx   d 5 32 22 5D 00 10  Length = 176000 BitCount = 91 ID = 353
   0.161797 1  1F9             Tx   d 6 20 1E 1C 3C F8 FF  Length = 194000 BitCount = 100 ID = 505
   0.161800 1  181             Tx   d 8 1C 3C 32 10 32 20 42 4E  Length = 224000 BitCount = 115 ID = 385
   0.164790 1  181             Tx   d 8 1C 3C 32 10 32 20 42 4E  Length = 224000 BitCount = 115 ID = 385
   0.167744 1  161             Tx   d 5 B5 E9 02 ED 9C  Length = 170000 BitCount = 88 ID = 353
   0.168805 1  1A5             Tx   d 8 9F FF 01 00 00 00 00 00  Length = 238000 BitCount = 122 ID = 421
   0.170737 1  244             Tx   d 7 FE FE 00 00 00 00 FE  Length = 222000 BitCount = 114 ID = 580
   0.170743 1  354             Tx   d 8 00 00 00 00 00 00 00 00  Length = 244000 BitCount = 125 ID = 852
   0.170746 1  161             Tx   d 5 32 22 5D 00 10  Length = 176000 BitCount = 91 ID = 353
   0.171755 1  1F9             Tx   d 6 20 1E 1C 3C F8 FF  Length = 194000 BitCount = 100 ID = 505
   0.171762 1  181             Tx   d 8 1C 3C 33 10 32 20 42 4E  Length = 224000 BitCount = 115 ID = 385
   0.177761 1  161             Tx   d 5 65 06 A1 5D 32  Length = 172000 BitCount = 89 ID = 353
   0.177769 1  1A5             Tx   d 8 AF FF 01 00 00 00 00 00  Length = 242000 BitCount = 124 ID = 421
   0.180748 1  284             Tx   d 8 00 00 00 00 00 00 00 00  Length = 246000 BitCount = 126 ID = 644
   0.180760 1  285             Tx   d 8 00 00 00 00 00 00 00 00  Length = 248000 BitCount = 127 ID = 645
   0.181737 1  161             Tx   d 5 32 22 5D 00 10  Length = 176000 BitCount = 91 ID = 353
   0.181745 1  551             Tx   d 8 68 5B 71 88 FF 7A 00 5D  Length = 222000 BitCount = 114 ID = 1361
   0.181748 1  1F9             Tx   d 6 20 1E 1C 3C F8 FF  Length = 194000 BitCount = 100 ID = 505
   0.181750 1  181             Tx   d 8 1C 3C 33 10 32 20 42 4E  Length = 224000 BitCount = 115 ID = 385
   0.182741 1  511             Tx   d 7 00 00 00 00 00 00 00  Length = 224000 BitCount = 115 ID = 1297
   0.182749 1  5DD             Tx   d 3 4C 00 00  Length = 144000 BitCount = 75 ID = 1501
   0.182751 1  65C             Tx   d 1 78  Length = 108000 BitCount = 57 ID = 1628
   0.188747 1  1A5             Tx   d 8 BF FF 01 00 00 00 00 00  Length = 238000 BitCount = 122 ID = 421
   0.190735 1  244             Tx   d 7 FE FE 00 00 00 00 FE  Length = 222000 BitCount = 114 ID = 580
   0.191741 1  161             Tx   d 5 32 22 5D 00 10  Length = 176000 BitCount = 91 ID = 353
   0.191751 1  1F9             Tx   d 6 20 1E 1C 3C F8 FF  Length = 194000 BitCount = 100 ID = 505
   0.191753 1  181             Tx   d 8 1C 3C 33 10 32 20 42 4E  Length = 224000 BitCount = 115 ID = 385
   0.196664 1  161             Tx   d 5 BA 58 AB 97 DB  Length = 170000 BitCount = 88 ID = 353
   0.197693 1  1A5             Tx   d 8 CF FF 01 00 00 00 00 00  Length = 242000 BitCount = 124 ID = 421
   0.200695 1  284             Tx   d 8 00 00 00 00 00 00 00 00  Length = 246000 BitCount = 126 ID = 644
   0.200703 1  285             Tx   d 8 00 00 00 00 00 00 00 00  Length = 248000 BitCount = 127 ID = 645
   0.201716 1  161             Tx   d 5 32 22 5D 00 10  Length = 176000 BitCount = 91 ID = 353
   0.201724 1  1F9             Tx   d 6 20 1E 1C 38 F8 FF  Length = 194000 BitCount = 100 ID = 505
   0.202644 1  181             Tx   d 8 1C 38 33 10 32 20 42 4E  Length = 226000 BitCount = 116 ID = 385
   0.208689 1  1A5             Tx   d 8 DF FF 01 00 00 00 00 00  Length = 238000 BitCount = 122 ID = 421
   0.210686 1  244             Tx   d 7 FE FE 00 00 00 00 FE  Length = 222000 BitCount = 114 ID = 580
   0.210696 1  354             Tx   d 8 00 00 00 00 00 00 00 00  Length = 244000 BitCount = 125 ID = 852
   0.210699 1  161             Tx   d 5 32 21 5D 00 10  Length = 174000 BitCount = 90 ID = 353
   0.211685 1  1F9             Tx   d 6 20 1E 1C 38 F8 FF  Length = 194000 BitCount = 100 ID = 505
   0.211696 1  181             Tx   d 8 1C 38 33 10 32 20 43 4E  Length = 228000 BitCount = 117 ID = 385
   0.217646 1  1A5             Tx   d 8 EF FF 01 00 00 00 00 00  Length = 240000 BitCount = 123 ID = 421
   0.220629 1  284             Tx   d 8 00 00 00 00 00 00 00 00  Length = 246000 BitCount = 126 ID = 644
   0.220636 1  285             Tx   d 8 00 00 00 00 00 00 00 00  Length = 248000 BitCount = 127 ID = 645
   0.221615 1  161             Tx   d 5 32 21 5D 00 10  Length = 174000 BitCount = 90 ID = 353
   0.221623 1  1F9             Tx   d 6 20 1E 1C 38 F8 FF  Length = 194000 BitCount = 100 ID = 505
   0.221626 1  181             Tx   d 8 1C 38 33 10 32 20 43 4E  Length = 228000 BitCount = 117 ID = 385
   0.228451 1  1A5             Tx   d 8 FF FF 01 00 00 00 00 00  Length = 240000 BitCount = 123 ID = 421
   0.230547 1  244             Tx   d 7 FE FE 00 00 00 00 FE  Length = 222000 BitCount = 114 ID = 580
   0.233996 1  161             Tx   d 5 32 21 5D 00 10  Length = 174000 BitCount = 90 ID = 353
   0.234017 1  1F9             Tx   d 6 20 1E 1C 38 F8 FF  Length = 194000 BitCount = 100 ID = 505
   0.234021 1  181             Tx   d 8 1C 38 32 10 32 20 43 4E  Length = 226000 BitCount = 116 ID = 385
   0.237966 1  1A5             Tx   d 8 0F FF 01 00 00 00 00 00  Length = 240000 BitCount = 123 ID = 421
   0.240993 1  284             Tx   d 8 00 00 00 00 00 00 00 00  Length = 246000 BitCount = 126 ID = 644
   0.241000 1  285             Tx   d 8 00 00 00 00 00 00 00 00  Length = 248000 BitCount = 127 ID = 645
   0.242422 1  161             Tx   d 5 32 21 5D 00 10  Length = 174000 BitCount = 90 ID = 353
   0.242437 1  1F9             Tx   d 6 20 1E 1C 44 F8 FF  Length = 194000 BitCount = 100 ID = 505
   0.242440 1  181             Tx   d 8 1C 44 32 10 32 20 43 4E  Length = 226000 BitCount = 116 ID = 385
   0.248434 1  1A5             Tx   d 8 1F FF 01 00 00 00 00 00  Length = 240000 BitCount = 123 ID = 421
   0.251194 1  244             Tx   d 7 FE FE 00 00 00 00 FE  Length = 222000 BitCount = 114 ID = 580
   0.251203 1  354             Tx   d 8 00 00 00 00 00 00 00 00  Length = 244000 BitCount = 125 ID = 852
   0.251205 1  161             Tx   d 5 32 21 5D 00 10  Length = 174000 BitCount = 90 ID = 353
   0.252071 1  1F9             Tx   d 6 20 1E 1C 44 F8 FF  Length = 194000 BitCount = 100 ID = 505
   0.252079 1  181             Tx   d 8 1C 44 32 10 32 20 43 4E  Length = 226000 BitCount = 116 ID = 385
   0.253272 1  181             Tx   d 8 1C 44 32 10 32 20 43 4E  Length = 226000 BitCount = 116 ID = 385
   0.258395 1  1A5             Tx   d 8 2F FF 01 00 00 00 00 00  Length = 240000 BitCount = 123 ID = 421
   0.260452 1  161             Tx   d 5 B3 5A B5 31 B9  Length = 170000 BitCount = 88 ID = 353
   0.260464 1  284             Tx   d 8 00 00 00 00 00 00 00 00  Length = 246000 BitCount = 126 ID = 644
   0.260477 1  285             Tx   d 8 00 00 00 00 00 00 00 00  Length = 248000 BitCount = 127 ID = 645
   0.262438 1  161             Tx   d 5 32 22 5D 00 10  Length = 176000 BitCount = 91 ID = 353
   0.262453 1  1F9             Tx   d 6 20 1E 1C 44 F8 FF  Length = 194000 BitCount = 100 ID = 505
   0.262455 1  181             Tx   d 8 1C 44 32 10 32 20 42 4E  Length = 224000 BitCount = 115 ID = 385
   0.264394 1  161             Tx   d 5 19 22 0C 61 2F  Length = 172000 BitCount = 89 ID = 353
   0.269025 1  1A5             Tx   d 8 3F FF 01 00 00 00 00 00  Length = 242000 BitCount = 124 ID = 421
   0.270460 1  244             Tx   d 7 FE FE 00 00 00 00 FE  Length = 222000 BitCount = 114 ID = 580
   0.272513 1  161             Tx   d 5 32 22 5D 00 10  Length = 176000 BitCount = 91 ID = 353
   0.272528 1  1F9             Tx   d 6 20 1E 1C 32 F8 FF  Length = 194000 BitCount = 100 ID = 505
   0.272531 1  181             Tx   d 8 1C 32 33 10 32 20 42 4E  Length = 224000 BitCount = 115 ID = 385
   0.278397 1  1A5             Tx   d 8 4F FF 01 00 00 00 00 00  Length = 238000 BitCount = 122 ID = 421
   0.280491 1  284             Tx   d 8 00 00 00 00 00 00 00 00  Length = 246000 BitCount = 126 ID = 644
   0.280502 1  285             Tx   d 8 00 00 00 00 00 00 00 00  Length = 248000 BitCount = 127 ID = 645
   0.282036 1  161             Tx   d 5 32 21 5D 00 10  Length = 174000 BitCount = 90 ID = 353
   0.282048 1  551             Tx   d 8 68 5C 71 88 FF 7A 00 5E  Length = 224000 BitCount = 115 ID = 1361
   0.282052 1  1F9             Tx   d 6 20 1E 1C 32 F8 FF  Length = 194000 BitCount = 100 ID = 505
   0.282055 1  181             Tx   d 8 1C 32 33 10 32 20 43 4E  Length = 224000 BitCount = 115 ID = 385
   0.282058 1  511             Tx   d 7 00 00 00 00 00 00 00  Length = 224000 BitCount = 115 ID = 1297
   0.282060 1  5DD             Tx   d 3 4C 00 00  Length = 144000 BitCount = 75 ID = 1501
   0.283218 1  65C             Tx   d 1 78  Length = 108000 BitCount = 57 ID = 1628
   0.288356 1  1A5             Tx   d 8 5F FF 01 00 00 00 00 00  Length = 240000 BitCount = 123 ID = 421
   0.290371 1  244             Tx   d 7 FE FE 00 00 00 00 FE  Length = 222000 BitCount = 114 ID = 580
   0.290397 1  354             Tx   d 8 00 00 00 00 00 00 00 00  Length = 244000 BitCount = 125 ID = 852
   0.292367 1  161             Tx   d 5 32 21 5D 00 10  Length = 174000 BitCount = 90 ID = 353
   0.292386 1  1F9             Tx   d 6 20 1E 1C 32 F8 FF  Length = 194000 BitCount = 100 ID = 505
   0.292390 1  181             Tx   d 8 1C 32 33 10 32 20 43 4E  Length = 224000 BitCount = 115 ID = 385
   0.298330 1  1A5             Tx   d 8 6F FF 01 00 00 00 00 00  Length = 238000 BitCount = 122 ID = 421
   0.300364 1  284             Tx   d 8 00 00 00 00 00 00 00 00  Length = 246000 BitCount = 126 ID = 644
   0.300397 1  285             Tx   d 8 00 00 00 00 00 00 00 00  Length = 248000 BitCount = 127 ID = 645
   0.302011 1  161             Tx   d 5 32 21 5D 00 10  Length = 174000 BitCount = 90 ID = 353
   0.302033 1  1F9             Tx   d 6 20 1E 1C 2C F8 FF  Length = 192000 BitCount = 99 ID = 505
   0.302038 1  181             Tx   d 8 1C 2C 33 10 32 20 43 4E  Length = 226000 BitCount = 116 ID = 385
   0.308248 1  1A5             Tx   d 8 F1 F6 C4 E2 2F D5 DA 44  Length = 220000 BitCount = 113 ID = 421
   0.309238 1  1A5             Tx   d 8 7F FF 01 00 00 00 00 00  Length = 240000 BitCount = 123 ID = 421
   0.311272 1  244             Tx   d 7 FE FE 00 00 00 00 FE  Length = 222000 BitCount = 114 ID = 580
   0.311314 1  161             Tx   d 5 32 21 5D 00 10  Length = 174000 BitCount = 90 ID = 353
   0.311321 1  1F9             Tx   d 6 20 1E 1C 2C F8 FF  Length = 192000 BitCount = 99 ID = 505
   0.311328 1  181             Tx   d 8 1C 2C 33 10 32 20 43 4E  Length = 226000 BitCount = 116 ID = 385
   0.314022 1  1A5             Tx   d 8 4A 83 03 FA F9 4A 40 95  Length = 226000 BitCount = 116 ID = 421
   0.318124 1  1A5             Tx   d 8 8F FF 01 00 00 00 00 00  Length = 238000 BitCount = 122 ID = 421
   0.320148 1  284             Tx   d 8 00 00 00 00 00 00 00 00  Length = 246000 BitCount = 126 ID = 644
   0.321077 1  285             Tx   d 8 00 00 00 00 00 00 00 00  Length = 248000 BitCount = 127 ID = 645
   0.321105 1  161             Tx   d 5 32 21 5D 00 10  Length = 174000 BitCount = 90 ID = 353
   0.322175 1  1F9             Tx   d 6 20 1E 1C 2C F8 FF  Length = 192000 BitCount = 99 ID = 505
   0.322214 1  181             Tx   d 8 1C 2C 33 10 32 20 43 4E  Length = 226000 BitCount = 116 ID = 385
   0.329114 1  1A5             Tx   d 8 9F FF 01 00 00 00 00 00  Length = 238000 BitCount = 122 ID = 421
   0.330102 1  244             Tx   d 7 FE FE 00 00 00 00 FE  Length = 222000 BitCount = 114 ID = 580
   0.331417 1  354             Tx   d 8 00 00 00 00 00 00 00 00  Length = 244000 BitCount = 125 ID = 852
   0.333051 1  161             Tx   d 5 32 21 5D 00 10  Length = 174000 BitCount = 90 ID = 353
   0.333059 1  1F9             Tx   d 6 20 1E 1C 2C F8 FF  Length = 192000 BitCount = 99 ID = 505
   0.334063 1  181             Tx   d 8 1C 2C 33 10 32 20 43 4E  Length = 226000 BitCount = 116 ID = 385
   0.338127 1  1A5             Tx   d 8 AF FF 01 00 00 00 00 00  Length = 242000 BitCount = 124 ID = 421
   0.340122 1  284             Tx   d 8 00 00 00 00 00 00 00 00  Length = 246000 BitCount = 126 ID = 644
   0.341119 1  285             Tx   d 8 00 00 00 00 00 00 00 00  Length = 248000 BitCount = 127 ID = 645
   0.341127 1  161             Tx   d 5 32 22 5D 00 10  Length = 176000 BitCount = 91 ID = 353
   0.341151 1  1F9             Tx   d 6 20 1E 1C 48 F8 FF  Length = 194000 BitCount = 100 ID = 505
   0.342112 1  181             Tx   d 8 1C 48 33 10 32 20 42 4E  Length = 228000 BitCount = 117 ID = 385
   0.343269 1  161             Tx   d 5 AE 5E 8D 27 F5  Length = 170000 BitCount = 88 ID = 353
   0.345102 1  161             Tx   d 5 33 A9 94 06 8B  Length = 172000 BitCount = 89 ID = 353
   0.349142 1  1A5             Tx   d 8 BF FF 01 00 00 00 00 00  Length = 238000 BitCount = 122 ID = 421
   0.350136 1  244             Tx   d 7 FE FE 00 00 00 00 FE  Length = 222000 BitCount = 114 ID = 580
   0.352130 1  161             Tx   d 5 32 21 5D 00 10  Length = 174000 BitCount = 90 ID = 353
   0.352138 1  1F9             Tx   d 6 20 1E 1C 48 F8 FF  Length = 194000 BitCount = 100 ID = 505
   0.352162 1  181             Tx   d 8 1C 48 33 10 32 20 43 4E  Length = 226000 BitCount = 116 ID = 385
   0.358066 1  1A5             Tx   d 8 CF FF 01 00 00 00 00 00  Length = 242000 BitCount = 124 ID = 421
   0.360082 1  284             Tx   d 8 00 00 00 00 00 00 00 00  Length = 246000 BitCount = 126 ID = 644
   0.361080 1  285             Tx   d 8 00 00 00 00 00 00 00 00  Length = 248000 BitCount = 127 ID = 645
   0.361088 1  161             Tx   d 5 32 22 5D 00 10  Length = 176000 BitCount = 91 ID = 353
   0.362060 1  1F9             Tx   d 6 20 1E 1C 48 F8 FF  Length = 194000 BitCount = 100 ID = 505
   0.362068 1  181             Tx   d 8 1C 48 33 10 32 20 42 4E  Length = 228000 BitCount = 117 ID = 385
   0.363057 1  181             Tx   d 8 1C 2C 33 10 32 20 43 4E  Length = 226000 BitCount = 116 ID = 385
   0.363063 1  1A5             Tx   d 8 A6 C9 00 52 4A CB 99 9C  Length = 220000 BitCount = 113 ID = 421
   0.369042 1  1A5             Tx   d 8 DF FF 01 00 00 00 00 00  Length = 238000 BitCount = 122 ID = 421
   0.370043 1  244             Tx   d 7 FE FE 00 00 00 00 FE  Length = 222000 BitCount = 114 ID = 580
   0.371081 1  354             Tx   d 8 00 00 00 00 00 00 00 00  Length = 244000 BitCount = 125 ID = 852
   0.371089 1  161             Tx   d 5 32 22 5D 00 10  Length = 176000 BitCount = 91 ID = 353
   0.371112 1  1F9             Tx   d 6 20 1E 1C 60 F8 FF  Length = 194000 BitCount = 100 ID = 505
   0.372032 1  181             Tx   d 8 1C 60 33 10 32 20 42 4E  Length = 226000 BitCount = 116 ID = 385
   0.378388 1  1A5             Tx   d 8 EF FF 01 00 00 00 00 00  Length = 240000 BitCount = 123 ID = 421
   0.380298 1  284             Tx   d 8 00 00 00 00 00 00 00 00  Length = 246000 BitCount = 126 ID = 644
   0.380304 1  285             Tx   d 8 00 00 00 00 00 00 00 00  Length = 248000 BitCount = 127 ID = 645
   0.381417 1  161             Tx   d 5 32 22 5D 00 10  Length = 176000 BitCount = 91 ID = 353
   0.381432 1  551             Tx   d 8 68 5C 71 88 FF 7A 00 5E  Length = 224000 BitCount = 115 ID = 1361
   0.381434 1  1F9             Tx   d 6 20 1E 1C 60 F8 FF  Length = 194000 BitCount = 100 ID = 505
   0.383538 1  181             Tx   d 8 1C 60 33 10 32 20 42 4E  Length = 226000 BitCount = 116 ID = 385
   0.383552 1  511             Tx   d 7 00 00 00 00 00 00 00  Length = 224000 BitCount = 115 ID = 1297
   0.383555 1  5DD             Tx   d 3 4C 00 00  Length = 144000 BitCount = 75 ID = 1501
   0.383557 1  65C             Tx   d 1 78  Length = 108000 BitCount = 57 ID = 1628
   0.388414 1  1A5             Tx   d 8 FF FF 01 00 00 00 00 00  Length = 240000 BitCount = 123 ID = 421
   0.390989 1  244             Tx   d 7 FE FE 00 00 00 00 FE  Length = 222000 BitCount = 114 ID = 580
   0.391023 1  161             Tx   d 5 32 22 5D 00 10  Length = 176000 BitCount = 91 ID = 353
   0.391026 1  1F9             Tx   d 6 20 1E 1C 60 F8 FF  Length = 194000 BitCount = 100 ID = 505
   0.392154 1  181             Tx   d 8 1C 60 33 10 32 20 42 4E  Length = 226000 BitCount = 116 ID = 385
   0.398390 1  1A5             Tx   d 8 0F FF 01 00 00 00 00 00  Length = 240000 BitCount = 123 ID = 421
   0.400562 1  284             Tx   d 8 00 00 00 00 00 00 00 00  Length = 246000 BitCount = 126 ID = 644
   0.400575 1  285             Tx   d 8 00 00 00 00 00 00 00 00  Length = 248000 BitCount = 127 ID = 645
   0.400581 1  161             Tx   d 5 94 21 F6 2D 8B  Length = 170000 BitCount = 88 ID = 353
   0.401974 1  161             Tx   d 5 32 22 5D 00 10  Length = 176000 BitCount = 91 ID = 353
   0.401987 1  1F9             Tx   d 6 20 1E 1C 4C F8 FF  Length = 194000 BitCount = 100 ID = 505
   0.401990 1  181             Tx   d 8 1C 4C 32 10 32 20 42 4E  Length = 224000 BitCount = 115 ID = 385
   0.408358 1  1A5             Tx   d 8 1F FF 01 00 00 00 00 00  Length = 240000 BitCount = 123 ID = 421
   0.410460 1  244             Tx   d 7 FE FE 00 00 00 00 FE  Length = 222000 BitCount = 114 ID = 580
   0.410470 1  354             Tx   d 8 00 00 00 00 00 00 00 00  Length = 244000 BitCount = 125 ID = 852
   0.412452 1  161             Tx   d 5 32 21 5D 00 10  Length = 174000 BitCount = 90 ID = 353
   0.412467 1  1F9             Tx   d 6 20 1E 1C 4C F8 FF  Length = 194000 BitCount = 100 ID = 505
   0.412470 1  181             Tx   d 8 1C 4C 32 10 32 20 43 4E  Length = 224000 BitCount = 115 ID = 385
   0.419191 1  1A5             Tx   d 8 2F FF 01 00 00 00 00 00  Length = 240000 BitCount = 123 ID = 421
   0.420291 1  284             Tx   d 8 00 00 00 00 00 00 00 00  Length = 246000 BitCount = 126 ID = 644
   0.420311 1  285             Tx   d 8 00 00 00 00 00 00 00 00  Length = 248000 BitCount = 127 ID = 645
   0.421913 1  161             Tx   d 5 32 21 5D 00 10  Length = 174000 BitCount = 90 ID = 353
   0.421925 1  1F9             Tx   d 6 20 1E 1C 4C F8 FF  Length = 194000 BitCount = 100 ID = 505
   0.421929 1  181             Tx   d 8 1C 4C 32 10 32 20 43 4E  Length = 224000 BitCount = 115 ID = 385
   0.428414 1  1A5             Tx   d 8 3F FF 01 00 00 00 00 00  Length = 242000 BitCount = 124 ID = 421
   0.430381 1  244             Tx   d 7 FE FE 00 00 00 00 FE  Length = 222000 BitCount = 114 ID = 580
   0.430403 1  161             Tx   d 5 1E 15 34 23 26  Length = 170000 BitCount = 88 ID = 353
   0.433279 1  161             Tx   d 5 32 21 5C 00 10  Length = 172000 BitCount = 89 ID = 353
   0.433295 1  1F9             Tx   d 6 20 1E 1C 44 F8 FF  Length = 194000 BitCount = 100 ID = 505
   0.434896 1  181             Tx   d 8 1C 44 32 10 32 20 43 4E  Length = 226000 BitCount = 116 ID = 385
   0.438139 1  1A5             Tx   d 8 4F FF 01 00 00 00 00 00  Length = 238000 BitCount = 122 ID = 421
   0.439919 1  1A5             Tx   d 8 E9 34 2F FE 20 7C 63 57  Length = 224000 BitCount = 115 ID = 421
   0.441299 1  284             Tx   d 8 00 00 00 00 00 00 00 00  Length = 246000 BitCount = 126 ID = 644
   0.441311 1  285             Tx   d 8 00 00 00 00 00 00 00 00  Length = 248000 BitCount = 127 ID = 645
   0.441315 1  161             Tx   d 5 32 21 5C 00 10  Length = 172000 BitCount = 89 ID = 353
   0.441318 1  1F9             Tx   d 6 20 1E 1C 44 F8 FF  Length = 194000 BitCount = 100 ID = 505
   0.443282 1  181             Tx   d 8 1C 44 32 10 32 20 43 4E  Length = 226000 BitCount = 116 ID = 385
   0.449182 1  1A5             Tx   d 8 5F FF 01 00 00 00 00 00  Length = 240000 BitCount = 123 ID = 421
   0.450091 1  244             Tx   d 7 FE FE 00 00 00 00 FE  Length = 222000 BitCount = 114 ID = 580
   0.450900 1  354             Tx   d 8 00 00 00 00 00 00 00 00  Length = 244000 BitCount = 125 ID = 852
   0.451889 1  161             Tx   d 5 32 21 5C 00 10  Length = 172000 BitCount = 89 ID = 353
   0.451904 1  1F9             Tx   d 6 20 1E 1C 44 F8 FF  Length = 194000 BitCount = 100 ID = 505
   0.451908 1  181             Tx   d 8 1C 44 32 10 32 20 43 4E  Length = 226000 BitCount = 116 ID = 385
   0.452883 1  1A5             Tx   d 8 ED 40 21 45 47 52 DF 27  Length = 220000 BitCount = 113 ID = 421
   0.458251 1  1A5             Tx   d 8 6F FF 01 00 00 00 00 00  Length = 238000 BitCount = 122 ID = 421
   0.460273 1  161             Tx   d 5 FD 6F A8 46 37  Length = 176000 BitCount = 91 ID = 353
   0.460302 1  284             Tx   d 8 00 00 00 00 00 00 00 00  Length = 246000 BitCount = 126 ID = 644
   0.462267 1  285             Tx   d 8 00 00 00 00 00 00 00 00  Length = 248000 BitCount = 127 ID = 645
   0.462291 1  161             Tx   d 5 32 21 5C 00 10  Length = 172000 BitCount = 89 ID = 353
   0.462297 1  1F9             Tx   d 6 20 1E 1C 44 F8 FF  Length = 194000 BitCount = 100 ID = 505
   0.462302 1  181             Tx   d 8 1C 44 32 10 32 20 43 4E  Length = 226000 BitCount = 116 ID = 385
   0.462348 1  181             Tx   d 8 1C 44 32 10 32 20 43 4E  Length = 226000 BitCount = 116 ID = 385
   0.468949 1  1A5             Tx   d 8 7F FF 01 00 00 00 00 00  Length = 240000 BitCount = 123 ID = 421
   0.471159 1  244             Tx   d 7 FE FE 00 00 00 00 FE  Length = 222000 BitCount = 114 ID = 580
   0.471193 1  161             Tx   d 5 32 21 5C 00 10  Length = 172000 BitCount = 89 ID = 353
   0.471200 1  1F9             Tx   d 6 20 1E 1C 3A F8 FF  Length = 192000 BitCount = 99 ID = 505
   0.471911 1  181             Tx   d 8 1C 3A 32 10 32 20 43 4E  Length = 224000 BitCount = 115 ID = 385
   0.478226 1  1A5             Tx   d 8 8F FF 01 00 00 00 00 00  Length = 238000 BitCount = 122 ID = 421
   0.480193 1  284             Tx   d 8 00 00 00 00 00 00 00 00  Length = 246000 BitCount = 126 ID = 644
   0.480915 1  285             Tx   d 8 00 00 00 00 00 00 00 00  Length = 248000 BitCount = 127 ID = 645
   0.481894 1  1A5             Tx   d 8 39 26 ED C3 06 81 1B BF  Length = 224000 BitCount = 115 ID = 421
   0.481917 1  161             Tx   d 5 32 21 5C 00 10  Length = 172000 BitCount = 89 ID = 353
   0.481935 1  551             Tx   d 8 68 5C 71 88 FF 7A 00 5E  Length = 224000 BitCount = 115 ID = 1361
   0.481944 1  1F9             Tx   d 6 20 1E 1C 3A F8 FF  Length = 192000 BitCount = 99 ID = 505
   0.481952 1  181             Tx   d 8 1C 3A 32 10 32 20 43 4E  Length = 224000 BitCount = 115 ID = 385
   0.482897 1  511             Tx   d 7 00 00 00 00 00 00 00  Length = 224000 BitCount = 115 ID = 1297
   0.482928 1  5DD             Tx   d 3 4C 00 00  Length = 144000 BitCount = 75 ID = 1501
   0.482938 1  65C             Tx   d 1 78  Length = 108000 BitCount = 57 ID = 1628
   0.489151 1  1A5             Tx   d 8 9F FF 01 00 00 00 00 00  Length = 238000 BitCount = 122 ID = 421
   0.491151 1  244             Tx   d 7 FE FE 00 00 00 00 FE  Length = 222000 BitCount = 114 ID = 580
   0.491209 1  354             Tx   d 8 00 00 00 00 00 00 00 00  Length = 244000 BitCount = 125 ID = 852
   0.491221 1  161             Tx   d 5 32 23 5C 00 10  Length = 172000 BitCount = 89 ID = 353
   0.491231 1  1F9             Tx   d 6 20 1E 1C 3A F8 FF  Length = 192000 BitCount = 99 ID = 505
   0.491240 1  181             Tx   d 8 1C 3A 32 10 32 20 41 4E  Length = 226000 BitCount = 116 ID = 385
   0.498157 1  1A5             Tx   d 8 AF FF 01 00 00 00 00 00  Length = 242000 BitCount = 124 ID = 421
   0.500879 1  284             Tx   d 8 00 00 00 00 00 00 00 00  Length = 246000 BitCount = 126 ID = 644
   0.500926 1  285             Tx   d 8 00 00 00 00 00 00 00 00  Length = 248000 BitCount = 127 ID = 645
   0.500937 1  161             Tx   d 5 32 23 5C 00 10  Length = 172000 BitCount = 89 ID = 353
   0.501906 1  1F9             Tx   d 6 20 1E 1C 50 F8 FF  Length = 192000 BitCount = 99 ID = 505
   0.501939 1  181             Tx   d 8 1C 50 34 10 32 20 41 4E  Length = 232000 BitCount = 119 ID = 385
   0.503945 1  161             Tx   d 5 6A AB FC DF B9  Length = 172000 BitCount = 89 ID = 353
   0.508281 1  1A5             Tx   d 8 3E 23 10 4B C4 BE 42 FA  Length = 228000 BitCount = 117 ID = 421
   0.510263 1  1A5             Tx   d 8 BF FF 01 00 00 00 00 00  Length = 238000 BitCount = 122 ID = 421
   0.510308 1  244             Tx   d 7 FE FE 00 00 00 00 FE  Length = 222000 BitCount = 114 ID = 580
   0.510995 1  161             Tx   d 5 32 23 5E 00 10  Length = 172000 BitCount = 89 ID = 353
   0.511028 1  1F9             Tx   d 6 20 1E 1C 50 F8 FF  Length = 192000 BitCount = 99 ID = 505
   0.511985 1  181             Tx   d 8 1C 50 34 10 32 20 41 4E  Length = 232000 BitCount = 119 ID = 385
   0.518046 1  1A5             Tx   d 8 CF FF 01 00 00 00 00 00  Length = 242000 BitCount = 124 ID = 421
   0.520222 1  284             Tx   d 8 00 00 00 00 00 00 00 00  Length = 246000 BitCount = 126 ID = 644
   0.520283 1  1A5             Tx   d 8 A5 70 CF 48 CF 1A DD 6A  Length = 218000 BitCount = 112 ID = 421
   0.520984 1  285             Tx   d 8 00 00 00 00 00 00 00 00  Length = 248000 BitCount = 127 ID = 645
   0.521016 1  161             Tx   d 5 32 23 5E 00 10  Length = 172000 BitCount = 89 ID = 353
   0.521935 1  1F9             Tx   d 6 20 1E 1C 50 F8 FF  Length = 192000 BitCount = 99 ID = 505
   0.521969 1  181             Tx   d 8 1C 50 34 10 32 20 41 4E  Length = 232000 BitCount = 119 ID = 385
   0.522936 1  161             Tx   d 5 00 C4 90 3A 3B  Length = 174000 BitCount = 90 ID = 353
   0.528979 1  1A5             Tx   d 8 DF FF 01 00 00 00 00 00  Length = 238000 BitCount = 122 ID = 421
   0.530955 1  244             Tx   d 7 FE FE 00 00 00 00 FE  Length = 222000 BitCount = 114 ID = 580
   0.531003 1  354             Tx   d 8 00 00 00 00 00 00 00 00  Length = 244000 BitCount = 125 ID = 852
   0.532950 1  161             Tx   d 5 32 23 5E 00 10  Length = 172000 BitCount = 89 ID = 353
   0.532986 1  1F9             Tx   d 6 20 1E 1C 6A F8 FF  Length = 194000 BitCount = 100 ID = 505
   0.533940 1  181             Tx   d 8 1C 6A 32 10 32 20 41 4E  Length = 226000 BitCount = 116 ID = 385
   0.537885 1  1A5             Tx   d 8 EF FF 01 00 00 00 00 00  Length = 240000 BitCount = 123 ID = 421
   0.540928 1  284             Tx   d 8 00 00 00 00 00 00 00 00  Length = 246000 BitCount = 126 ID = 644
   0.540972 1  285             Tx   d 8 00 00 00 00 00 00 00 00  Length = 248000 BitCount = 127 ID = 645
   0.540983 1  161             Tx   d 5 32 23 5E 00 10  Length = 172000 BitCount = 89 ID = 353
   0.541875 1  1F9             Tx   d 6 20 1E 1C 6A F8 FF  Length = 194000 BitCount = 100 ID = 505
   0.541909 1  181             Tx   d 8 1C 6A 32 10 32 20 41 4E  Length = 226000 BitCount = 116 ID = 385
   0.547863 1  161             Tx   d 5 74 95 1B 11 90  Length = 172000 BitCount = 89 ID = 353
   0.548829 1  1A5             Tx   d 8 FF FF 01 00 00 00 00 00  Length = 240000 BitCount = 123 ID = 421
   0.550864 1  244             Tx   d 7 FE FE 00 00 00 00 FE  Length = 222000 BitCount = 114 ID = 580
   0.551827 1  161             Tx   d 5 32 23 5E 00 10  Length = 172000 BitCount = 89 ID = 353
   0.551852 1  1F9             Tx   d 6 20 1E 1C 6A F8 FF  Length = 194000 BitCount = 100 ID = 505
   0.551860 1  181             Tx   d 8 1C 6A 32 10 32 20 41 4E  Length = 226000 BitCount = 116 ID = 385
   0.556791 1  1A5             Tx   d 8 5D B0 66 15 D7 32 56 A5  Length = 220000 BitCount = 113 ID = 421
   0.557805 1  1A5             Tx   d 8 0F FF 01 00 00 00 00 00  Length = 240000 BitCount = 123 ID = 421
   0.560781 1  284             Tx   d 8 00 00 00 00 00 00 00 00  Length = 246000 BitCount = 126 ID = 644
   0.560787 1  285             Tx   d 8 00 00 00 00 00 00 00 00  Length = 248000 BitCount = 127 ID = 645
   0.561733 1  161             Tx   d 5 32 23 5E 00 10  Length = 172000 BitCount = 89 ID = 353
   0.561743 1  1F9             Tx   d 6 20 1E 1C 6A F8 FF  Length = 194000 BitCount = 100 ID = 505
   0.561774 1  181             Tx   d 8 1C 6A 32 10 32 20 41 4E  Length = 226000 BitCount = 116 ID = 385
   0.568739 1  1A5             Tx   d 8 1F FF 01 00 00 00 00 00  Length = 240000 BitCount = 123 ID = 421
   0.570734 1  244             Tx   d 7 FE FE 00 00 00 00 FE  Length = 222000 BitCount = 114 ID = 580
   0.570740 1  354             Tx   d 8 00 00 00 00 00 00 00 00  Length = 244000 BitCount = 125 ID = 852
   0.570743 1  161             Tx   d 5 32 23 5E 00 10  Length = 172000 BitCount = 89 ID = 353
   0.571731 1  1F9             Tx   d 6 20 1E 1C 62 F8 FF  Length = 194000 BitCount = 100 ID = 505
   0.571739 1  181             Tx   d 8 1C 62 32 10 32 20 41 4E  Length = 226000 BitCount = 116 ID = 385
   0.572724 1  181             Tx   d 8 1C 50 34 10 32 20 41 4E  Length = 232000 BitCount = 119 ID = 385
   0.577714 1  1A5             Tx   d 8 2F FF 01 00 00 00 00 00  Length = 240000 BitCount = 123 ID = 421
   0.580704 1  161             Tx   d 5 12 C1 2B EA 85  Length = 172000 BitCount = 89 ID = 353
   0.580714 1  284             Tx   d 8 00 00 00 00 00 00 00 00  Length = 246000 BitCount = 126 ID = 644
   0.580718 1  285             Tx   d 8 00 00 00 00 00 00 00 00  Length = 248000 BitCount = 127 ID = 645
   0.581701 1  161             Tx   d 5 32 23 5E 00 10  Length = 172000 BitCount = 89 ID = 353
   0.581709 1  551             Tx   d 8 68 5C 71 88 FF 7A 00 5E  Length = 224000 BitCount = 115 ID = 1361
   0.581712 1  1F9             Tx   d 6 20 1E 1C 62 F8 FF  Length = 194000 BitCount = 100 ID = 505
   0.581714 1  181             Tx   d 8 1C 62 32 10 32 20 41 4E  Length = 226000 BitCount = 116 ID = 385
   0.581716 1  511             Tx   d 7 00 00 00 00 00 00 00  Length = 224000 BitCount = 115 ID = 1297
   0.582698 1  5DD             Tx   d 3 4C 00 00  Length = 144000 BitCount = 75 ID = 1501
   0.582706 1  65C             Tx   d 1 78  Length = 108000 BitCount = 57 ID = 1628
   0.588699 1  1A5             Tx   d 8 3F FF 01 00 00 00 00 00  Length = 242000 BitCount = 124 ID = 421
   0.588707 1  161             Tx   d 5 D6 83 F5 15 AB  Length = 172000 BitCount = 89 ID = 353
   0.591050 1  244             Tx   d 7 FE FE 00 00 00 00 FE  Length = 222000 BitCount = 114 ID = 580
   0.591056 1  161             Tx   d 5 32 23 5E 00 10  Length = 172000 BitCount = 89 ID = 353
   0.591059 1  1F9             Tx   d 6 20 1E 1C 62 F8 FF  Length = 194000 BitCount = 100 ID = 505
   0.591747 1  181             Tx   d 8 1C 62 32 10 32 20 41 4E  Length = 226000 BitCount = 116 ID = 385
   0.598118 1  1A5             Tx   d 8 4F FF 01 00 00 00 00 00  Length = 238000 BitCount = 122 ID = 421
   0.600210 1  284             Tx   d 8 00 00 00 00 00 00 00 00  Length = 246000 BitCount = 126 ID = 644
   0.600681 1  285             Tx   d 8 00 00 00 00 00 00 00 00  Length = 248000 BitCount = 127 ID = 645
   0.601990 1  161             Tx   d 5 32 23 5E 00 10  Length = 172000 BitCount = 89 ID = 353
   0.602003 1  1F9             Tx   d 6 20 1E 1C 26 F8 FF  Length = 194000 BitCount = 100 ID = 505
   0.602006 1  181             Tx   d 8 1C 26 33 10 32 20 41 4E  Length = 226000 BitCount = 116 ID = 385
   0.608659 1  1A5             Tx   d 8 5F FF 01 00 00 00 00 00  Length = 240000 BitCount = 123 ID = 421
   0.611127 1  244             Tx   d 7 FE FE 00 00 00 00 FE  Length = 222000 BitCount = 114 ID = 580
   0.611160 1  354             Tx   d 8 00 00 00 00 00 00 00 00  Length = 244000 BitCount = 125 ID = 852
   0.611173 1  161             Tx   d 5 32 23 5E 00 10  Length = 172000 BitCount = 89 ID = 353
   0.611185 1  1F9             Tx   d 6 20 1E 1C 26 F8 FF  Length = 194000 BitCount = 100 ID = 505
   0.611690 1  181             Tx   d 8 1C 26 33 10 32 20 41 4E  Length = 226000 BitCount = 116 ID = 385
   0.618476 1  1A5             Tx   d 8 6F FF 01 00 00 00 00 00  Length = 238000 BitCount = 122 ID = 421
   0.620608 1  284             Tx   d 8 00 00 00 00 00 00 00 00  Length = 246000 BitCount = 126 ID = 644
   0.620628 1  285             Tx   d 8 00 00 00 00 00 00 00 00  Length = 248000 BitCount = 127 ID = 645
   0.622677 1  161             Tx   d 5 32 23 5E 00 10  Length = 172000 BitCount = 89 ID = 353
   0.622694 1  1A5             Tx   d 8 A8 F7 A8 D4 95 7B 93 24  Length = 216000 BitCount = 111 ID = 421
   0.622696 1  1F9             Tx   d 6 20 1E 1C 26 F8 FF  Length = 194000 BitCount = 100 ID = 505
   0.622699 1  181             Tx   d 8 1C 26 33 10 32 20 41 4E  Length = 226000 BitCount = 116 ID = 385
   0.628591 1  1A5             Tx   d 8 7F FF 01 00 00 00 00 00  Length = 240000 BitCount = 123 ID = 421
   0.630673 1  244             Tx   d 7 FE FE 00 00 00 00 FE  Length = 222000 BitCount = 114 ID = 580
   0.632661 1  161             Tx   d 5 32 23 5E 00 10  Length = 172000 BitCount = 89 ID = 353
   0.634163 1  1F9             Tx   d 6 20 1E 1C 00 F8 FF  Length = 198000 BitCount = 102 ID = 505
   0.634179 1  181             Tx   d 8 1C 00 33 10 32 20 41 4E  Length = 232000 BitCount = 119 ID = 385
   0.638513 1  1A5             Tx   d 8 8F FF 01 00 00 00 00 00  Length = 238000 BitCount = 122 ID = 421
   0.640602 1  284             Tx   d 8 00 00 00 00 00 00 00 00  Length = 246000 BitCount = 126 ID = 644
   0.640613 1  285             Tx   d 8 00 00 00 00 00 00 00 00  Length = 248000 BitCount = 127 ID = 645
   0.642127 1  161             Tx   d 5 32 23 5E 00 10  Length = 172000 BitCount = 89 ID = 353
   0.642140 1  1F9             Tx   d 6 20 1E 1C 00 F8 FF  Length = 198000 BitCount = 102 ID = 505
   0.642143 1  181             Tx   d 8 1C 00 33 10 32 20 41 4E  Length = 232000 BitCount = 119 ID = 385
   0.642148 1  181             Tx   d 8 1C 26 33 10 32 20 41 4E  Length = 226000 BitCount = 116 ID = 385
   0.644501 1  161             Tx   d 5 46 EA 8F 1E 63  Length = 168000 BitCount = 87 ID = 353
   0.645439 1  1A5             Tx   d 8 69 C0 59 29 51 EE 7B A3  Length = 218000 BitCount = 112 ID = 421
   0.648472 1  1A5             Tx   d 8 9F FF 01 00 00 00 00 00  Length = 238000 BitCount = 122 ID = 421
   0.650520 1  244             Tx   d 7 FE FE 00 00 00 00 FE  Length = 222000 BitCount = 114 ID = 580
   0.650543 1  354             Tx   d 8 00 00 00 00 00 00 00 00  Length = 244000 BitCount = 125 ID = 852
   0.652102 1  161             Tx   d 5 32 23 5E 00 10  Length = 172000 BitCount = 89 ID = 353
   0.652118 1  1F9             Tx   d 6 20 1E 1C 00 F8 FF  Length = 198000 BitCount = 102 ID = 505
   0.652122 1  181             Tx   d 8 1C 00 33 10 32 20 41 4E  Length = 232000 BitCount = 119 ID = 385
   0.658419 1  1A5             Tx   d 8 AF FF 01 00 00 00 00 00  Length = 242000 BitCount = 124 ID = 421
   0.660451 1  284             Tx   d 8 00 00 00 00 00 00 00 00  Length = 246000 BitCount = 126 ID = 644
   0.660467 1  285             Tx   d 8 00 00 00 00 00 00 00 00  Length = 248000 BitCount = 127 ID = 645
   0.662419 1  161             Tx   d 5 32 23 5E 00 10  Length = 172000 BitCount = 89 ID = 353
   0.662441 1  1F9             Tx   d 6 20 1E 1C 00 F8 FF  Length = 198000 BitCount = 102 ID = 505
   0.662445 1  181             Tx   d 8 1C 00 33 10 32 20 41 4E  Length = 232000 BitCount = 119 ID = 385
   0.665367 1  161             Tx   d 5 A6 45 57 08 30  Length = 172000 BitCount = 89 ID = 353
   0.668377 1  1A5             Tx   d 8 BF FF 01 00 00 00 00 00  Length = 238000 BitCount = 122 ID = 421
   0.670411 1  244             Tx   d 7 FE FE 00 00 00 00 FE  Length = 222000 BitCount = 114 ID = 580
   0.672398 1  161             Tx   d 5 32 23 5E 00 10  Length = 172000 BitCount = 89 ID = 353
   0.672424 1  1F9             Tx   d 6 20 1E 1B D4 F8 FF  Length = 192000 BitCount = 99 ID = 505
   0.672430 1  181             Tx   d 8 1B D4 33 10 32 20 41 4E  Length = 226000 BitCount = 116 ID = 385
   0.674108 1  1A5             Tx   d 8 0B CF 61 C5 1B 58 A3 A7  Length = 222000 BitCount = 114 ID = 421
   0.678080 1  1A5             Tx   d 8 CF FF 01 00 00 00 00 00  Length = 242000 BitCount = 124 ID = 421
   0.681525 1  284             Tx   d 8 00 00 00 00 00 00 00 00  Length = 246000 BitCount = 126 ID = 644
   0.681540 1  285             Tx   d 8 00 00 00 00 00 00 00 00  Length = 248000 BitCount = 127 ID = 645
   0.681543 1  161             Tx   d 5 32 23 5E 00 10  Length = 172000 BitCount = 89 ID = 353
   0.681545 1  551             Tx   d 8 68 5C 71 88 FF 7A 00 5E  Length = 224000 BitCount = 115 ID = 1361
   0.681547 1  1F9             Tx   d 6 20 1E 1B D4 F8 FF  Length = 192000 BitCount = 99 ID = 505
   0.683528 1  181             Tx   d 8 1B D4 33 10 32 20 41 4E  Length = 226000 BitCount = 116 ID = 385
   0.683543 1  511             Tx   d 7 00 00 00 00 00 00 00  Length = 224000 BitCount = 115 ID = 1297
   0.683546 1  5DD             Tx   d 3 4C 00 00  Length = 144000 BitCount = 75 ID = 1501
   0.683548 1  65C             Tx   d 1 78  Length = 108000 BitCount = 57 ID = 1628
   0.688484 1  1A5             Tx   d 8 DF FF 01 00 00 00 00 00  Length = 238000 BitCount = 122 ID = 421
   0.690370 1  244             Tx   d 7 FE FE 00 00 00 00 FE  Length = 222000 BitCount = 114 ID = 580
   0.690378 1  354             Tx   d 8 00 00 00 00 00 00 00 00  Length = 244000 BitCount = 125 ID = 852
   0.692241 1  161             Tx   d 5 32 24 5E 00 10  Length = 176000 BitCount = 91 ID = 353
   0.692250 1  1F9             Tx   d 6 20 1E 1B D4 F8 FF  Length = 192000 BitCount = 99 ID = 505
   0.692252 1  181             Tx   d 8 1B D4 33 10 32 20 40 4E  Length = 226000 BitCount = 116 ID = 385
   0.696396 1  1A5             Tx   d 8 0F 33 F7 E3 8F FA 4D D3  Length = 224000 BitCount = 115 ID = 421
   0.698361 1  1A5             Tx   d 8 EF FF 01 00 00 00 00 00  Length = 240000 BitCount = 123 ID = 421
   0.700438 1  284             Tx   d 8 00 00 00 00 00 00 00 00  Length = 246000 BitCount = 126 ID = 644
   0.700459 1  285             Tx   d 8 00 00 00 00 00 00 00 00  Length = 248000 BitCount = 127 ID = 645
   0.701986 1  161             Tx   d 5 32 24 5E 00 10  Length = 176000 BitCount = 91 ID = 353
   0.702000 1  1F9             Tx   d 6 20 1E 1B B2 F8 FF  Length = 194000 BitCount = 100 ID = 505
   0.702003 1  181             Tx   d 8 1B B2 34 10 32 20 40 4E  Length = 230000 BitCount = 118 ID = 385
   0.708548 1  1A5             Tx   d 8 FF FF 01 00 00 00 00 00  Length = 240000 BitCount = 123 ID = 421
   0.710537 1  244             Tx   d 7 FE FE 00 00 00 00 FE  Length = 222000 BitCount = 114 ID = 580
   0.711345 1  161             Tx   d 5 32 24 5F 00 10  Length = 176000 BitCount = 91 ID = 353
   0.711379 1  1F9             Tx   d 6 20 1E 1B B2 F8 FF  Length = 194000 BitCount = 100 ID = 505
   0.711390 1  181             Tx   d 8 1B B2 34 10 32 20 40 4E  Length = 230000 BitCount = 118 ID = 385
   0.713552 1  1A5             Tx   d 8 74 D3 A0 05 A4 08 C5 8D  Length = 222000 BitCount = 114 ID = 421
   0.714491 1  181             Tx   d 8 1B D4 33 10 32 20 41 4E  Length = 226000 BitCount = 116 ID = 385
   0.717505 1  161             Tx   d 5 3C 63 E2 6C E0  Length = 172000 BitCount = 89 ID = 353
   0.718493 1  1A5             Tx   d 8 0F FF 01 00 00 00 00 00  Length = 240000 BitCount = 123 ID = 421
   0.720316 1  284             Tx   d 8 00 00 00 00 00 00 00 00  Length = 246000 BitCount = 126 ID = 644
   0.721304 1  285             Tx   d 8 00 00 00 00 00 00 00 00  Length = 248000 BitCount = 127 ID = 645
   0.721338 1  161             Tx   d 5 32 24 5F 00 10  Length = 176000 BitCount = 91 ID = 353
   0.721349 1  1F9             Tx   d 6 20 1E 1B B2 F8 FF  Length = 194000 BitCount = 100 ID = 505
   0.722239 1  181             Tx   d 8 1B B2 34 10 32 20 40 4E  Length = 230000 BitCount = 118 ID = 385
   0.729279 1  1A5             Tx   d 8 1F FF 01 00 00 00 00 00  Length = 240000 BitCount = 123 ID = 421
   0.730282 1  244             Tx   d 7 FE FE 00 00 00 00 FE  Length = 222000 BitCount = 114 ID = 580
   0.731260 1  354             Tx   d 8 00 00 00 00 00 00 00 00  Length = 244000 BitCount = 125 ID = 852
   0.733252 1  161             Tx   d 5 32 24 5F 00 10  Length = 176000 BitCount = 91 ID = 353
   0.733287 1  1F9             Tx   d 6 20 1E 1B B2 F8 FF  Length = 194000 BitCount = 100 ID = 505
   0.733297 1  181             Tx   d 8 1B B2 34 10 32 20 40 4E  Length = 230000 BitCount = 118 ID = 385
   0.736260 1  161             Tx   d 5 D0 7E 01 17 4A  Length = 174000 BitCount = 90 ID = 353
   0.738209 1  1A5             Tx   d 8 2F FF 01 00 00 00 00 00  Length = 240000 BitCount = 123 ID = 421
   0.740239 1  284             Tx   d 8 00 00 00 00 00 00 00 00  Length = 246000 BitCount = 126 ID = 644
   0.741241 1  285             Tx   d 8 00 00 00 00 00 00 00 00  Length = 248000 BitCount = 127 ID = 645
   0.741275 1  161             Tx   d 5 32 24 5F 00 10  Length = 176000 BitCount = 91 ID = 353
   0.741286 1  1F9             Tx   d 6 20 1E 1B B2 F8 FF  Length = 194000 BitCount = 100 ID = 505
   0.743197 1  181             Tx   d 8 1B B2 34 10 32 20 40 4E  Length = 230000 BitCount = 118 ID = 385
   0.745234 1  1A5             Tx   d 8 1B 63 18 60 D6 5F C2 9F  Length = 226000 BitCount = 116 ID = 421
   0.749188 1  1A5             Tx   d 8 3F FF 01 00 00 00 00 00  Length = 242000 BitCount = 124 ID = 421
   0.750153 1  244             Tx   d 7 FE FE 00 00 00 00 FE  Length = 222000 BitCount = 114 ID = 580
   0.752138 1  161             Tx   d 5 32 24 5F 00 10  Length = 176000 BitCount = 91 ID = 353
   0.752165 1  1F9             Tx   d 6 20 1E 1B B2 F8 FF  Length = 194000 BitCount = 100 ID = 505
   0.752172 1  181             Tx   d 8 1B B2 34 10 32 20 40 4E  Length = 230000 BitCount = 118 ID = 385
   0.758079 1  1A5             Tx   d 8 4F FF 01 00 00 00 00 00  Length = 238000 BitCount = 122 ID = 421
   0.760072 1  284             Tx   d 8 00 00 00 00 00 00 00 00  Length = 246000 BitCount = 126 ID = 644
   0.761071 1  285             Tx   d 8 00 00 00 00 00 00 00 00  Length = 248000 BitCount = 127 ID = 645
   0.761078 1  161             Tx   d 5 32 24 5F 00 10  Length = 176000 BitCount = 91 ID = 353
   0.762067 1  1F9             Tx   d 6 20 1E 1B B2 F8 FF  Length = 194000 BitCount = 100 ID = 505
   0.762075 1  181             Tx   d 8 1B B2 34 10 32 20 40 4E  Length = 230000 BitCount = 118 ID = 385
   0.765077 1  161             Tx   d 5 82 64 00 40 CC  Length = 176000 BitCount = 91 ID = 353
   0.769048 1  1A5             Tx   d 8 5F FF 01 00 00 00 00 00  Length = 240000 BitCount = 123 ID = 421
   0.770051 1  244             Tx   d 7 FE FE 00 00 00 00 FE  Length = 222000 BitCount = 114 ID = 580
   0.771043 1  354             Tx   d 8 00 00 00 00 00 00 00 00  Length = 244000 BitCount = 125 ID = 852
   0.771051 1  161             Tx   d 5 32 24 5F 00 10  Length = 176000 BitCount = 91 ID = 353
   0.771075 1  1F9             Tx   d 6 20 1E 1B AE F8 FF  Length = 192000 BitCount = 99 ID = 505
   0.772052 1  181             Tx   d 8 1B AE 34 10 32 20 40 4E  Length = 228000 BitCount = 117 ID = 385
   0.778024 1  1A5             Tx   d 8 6F FF 01 00 00 00 00 00  Length = 238000 BitCount = 122 ID = 421
   0.780019 1  284             Tx   d 8 00 00 00 00 00 00 00 00  Length = 246000 BitCount = 126 ID = 644
   0.781020 1  285             Tx   d 8 00 00 00 00 00 00 00 00  Length = 248000 BitCount = 127 ID = 645
   0.781028 1  161             Tx   d 5 32 24 5F 00 10  Length = 176000 BitCount = 91 ID = 353
   0.781030 1  551             Tx   d 8 68 5D 71 88 FF 7A 00 5F  Length = 224000 BitCount = 115 ID = 1361
   0.782014 1  1F9             Tx   d 6 20 1E 1B AE F8 FF  Length = 192000 BitCount = 99 ID = 505
   0.782022 1  181             Tx   d 8 1B AE 34 10 32 20 40 4E  Length = 228000 BitCount = 117 ID = 385
   0.782024 1  511             Tx   d 7 00 00 00 00 00 00 00  Length = 224000 BitCount = 115 ID = 1297
   0.782027 1  5DD             Tx   d 3 4C 00 00  Length = 144000 BitCount = 75 ID = 1501
   0.782029 1  65C             Tx   d 1 78  Length = 108000 BitCount = 57 ID = 1628
   0.789012 1  1A5             Tx   d 8 7F FF 01 00 00 00 00 00  Length = 240000 BitCount = 123 ID = 421
   0.790038 1  244             Tx   d 7 FE FE 00 00 00 00 FE  Length = 222000 BitCount = 114 ID = 580
   0.791011 1  161             Tx   d 5 32 24 5F 00 10  Length = 176000 BitCount = 91 ID = 353
   0.791019 1  1F9             Tx   d 6 20 1E 1B AE F8 FF  Length = 192000 BitCount = 99 ID = 505
   0.791988 1  181             Tx   d 8 1B AE 34 10 32 20 40 4E  Length = 228000 BitCount = 117 ID = 385
   0.793026 1  161             Tx   d 5 32 B6 1C 35 3D  Length = 168000 BitCount = 87 ID = 353
   0.798499 1  1A5             Tx   d 8 8F FF 01 00 00 00 00 00  Length = 238000 BitCount = 122 ID = 421
   0.800549 1  284             Tx   d 8 00 00 00 00 00 00 00 00  Length = 246000 BitCount = 126 ID = 644
   0.800575 1  285             Tx   d 8 00 00 00 00 00 00 00 00  Length = 248000 BitCount = 127 ID = 645
   0.802294 1  161             Tx   d 5 32 24 5F 00 10  Length = 176000 BitCount = 91 ID = 353
   0.802306 1  1F9             Tx   d 6 20 1E 1B 94 F8 FF  Length = 192000 BitCount = 99 ID = 505
   0.803267 1  181             Tx   d 8 1B 94 34 10 32 20 40 4E  Length = 228000 BitCount = 117 ID = 385
   0.809378 1  1A5             Tx   d 8 9F FF 01 00 00 00 00 00  Length = 238000 BitCount = 122 ID = 421
   0.810459 1  244             Tx   d 7 FE FE 00 00 00 00 FE  Length = 222000 BitCount = 114 ID = 580
   0.810468 1  354             Tx   d 8 00 00 00 00 00 00 00 00  Length = 244000 BitCount = 125 ID = 852
   0.812453 1  161             Tx   d 5 32 24 5F 00 10  Length = 176000 BitCount = 91 ID = 353
   0.812468 1  1F9             Tx   d 6 20 1E 1B 94 F8 FF  Length = 192000 BitCount = 99 ID = 505
   0.812470 1  181             Tx   d 8 1B 94 34 10 32 20 40 4E  Length = 228000 BitCount = 117 ID = 385
   0.819115 1  1A5             Tx   d 8 AF FF 01 00 00 00 00 00  Length = 242000 BitCount = 124 ID = 421
   0.820317 1  284             Tx   d 8 00 00 00 00 00 00 00 00  Length = 246000 BitCount = 126 ID = 644
   0.820336 1  285             Tx   d 8 00 00 00 00 00 00 00 00  Length = 248000 BitCount = 127 ID = 645
   0.822427 1  161             Tx   d 5 32 24 5F 00 10  Length = 176000 BitCount = 91 ID = 353
   0.822441 1  1F9             Tx   d 6 20 1E 1B 94 F8 FF  Length = 192000 BitCount = 99 ID = 505
   0.822444 1  181             Tx   d 8 1B 94 34 10 32 20 40 4E  Length = 228000 BitCount = 117 ID = 385
   0.824426 1  161             Tx   d 5 5A 91 15 8B C9  Length = 168000 BitCount = 87 ID = 353
   0.829334 1  1A5             Tx   d 8 BF FF 01 00 00 00 00 00  Length = 238000 BitCount = 122 ID = 421
   0.831343 1  244             Tx   d 7 FE FE 00 00 00 00 FE  Length = 222000 BitCount = 114 ID = 580
   0.831362 1  161             Tx   d 5 32 24 5F 00 10  Length = 176000 BitCount = 91 ID = 353
   0.831365 1  1F9             Tx   d 6 20 1E 1B 94 F8 FF  Length = 192000 BitCount = 99 ID = 505
   0.831367 1  181             Tx   d 8 1B 94 34 10 32 20 40 4E  Length = 228000 BitCount = 117 ID = 385
   0.838268 1  1A5             Tx   d 8 CF FF 01 00 00 00 00 00  Length = 242000 BitCount = 124 ID = 421
   0.840333 1  284             Tx   d 8 00 00 00 00 00 00 00 00  Length = 246000 BitCount = 126 ID = 644
   0.840344 1  285             Tx   d 8 00 00 00 00 00 00 00 00  Length = 248000 BitCount = 127 ID = 645
   0.842320 1  161             Tx   d 5 32 24 5F 00 10  Length = 176000 BitCount = 91 ID = 353
   0.842336 1  1F9             Tx   d 6 20 1E 1B B2 F8 FF  Length = 194000 BitCount = 100 ID = 505
   0.842339 1  181             Tx   d 8 1B B2 36 10 32 20 40 4E  Length = 226000 BitCount = 116 ID = 385
   0.847279 1  1A5             Tx   d 8 D5 CE 84 AE 82 30 2F CD  Length = 222000 BitCount = 114 ID = 421
   0.849199 1  161             Tx   d 5 3D 45 DC A6 70  Length = 172000 BitCount = 89 ID = 353
   0.849215 1  1A5             Tx   d 8 DF FF 01 00 00 00 00 00  Length = 238000 BitCount = 122 ID = 421
   0.850092 1  1A5             Tx   d 8 A8 0A F0 E0 5D C4 03 28  Length = 222000 BitCount = 114 ID = 421
   0.850108 1  244             Tx   d 7 FE FE 00 00 00 00 FE  Length = 222000 BitCount = 114 ID = 580
   0.851139 1  354             Tx   d 8 00 00 00 00 00 00 00 00  Length = 244000 BitCount = 125 ID = 852
   0.851158 1  161             Tx   d 5 32 24 5F 00 10  Length = 176000 BitCount = 91 ID = 353
   0.851163 1  1F9             Tx   d 6 20 1E 1B B2 F8 FF  Length = 194000 BitCount = 100 ID = 505
   0.851166 1  181             Tx   d 8 1B B2 36 10 32 20 40 4E  Length = 226000 BitCount = 116 ID = 385
   0.852113 1  181             Tx   d 8 1B B2 36 10 32 20 40 4E  Length = 226000 BitCount = 116 ID = 385
   0.858187 1  1A5             Tx   d 8 EF FF 01 00 00 00 00 00  Length = 240000 BitCount = 123 ID = 421
   0.860206 1  284             Tx   d 8 00 00 00 00 00 00 00 00  Length = 246000 BitCount = 126 ID = 644
   0.860875 1  285             Tx   d 8 00 00 00 00 00 00 00 00  Length = 248000 BitCount = 127 ID = 645
   0.860896 1  161             Tx   d 5 32 24 5F 00 10  Length = 176000 BitCount = 91 ID = 353
   0.861830 1  1F9             Tx   d 6 20 1E 1B B2 F8 FF  Length = 194000 BitCount = 100 ID = 505
   0.861846 1  181             Tx   d 8 1B B2 36 10 32 20 40 4E  Length = 226000 BitCount = 116 ID = 385
   0.869123 1  1A5             Tx   d 8 FF FF 01 00 00 00 00 00  Length = 240000 BitCount = 123 ID = 421
   0.871143 1  244             Tx   d 7 FE FE 00 00 00 00 FE  Length = 222000 BitCount = 114 ID = 580
   0.871179 1  161             Tx   d 5 32 23 5F 00 10  Length = 176000 BitCount = 91 ID = 353
   0.871186 1  1F9             Tx   d 6 20 1E 1B BC F8 FF  Length = 194000 BitCount = 100 ID = 505
   0.871816 1  181             Tx   d 8 1B BC 35 10 32 20 41 4E  Length = 226000 BitCount = 116 ID = 385
   0.871864 1  181             Tx   d 8 1B BC 35 10 32 20 41 4E  Length = 226000 BitCount = 116 ID = 385
   0.877846 1  1A5             Tx   d 8 0F FF 01 00 00 00 00 00  Length = 240000 BitCount = 123 ID = 421
   0.880119 1  1A5             Tx   d 8 32 95 EE BF 85 9A 46 27  Length = 220000 BitCount = 113 ID = 421
   0.880166 1  284             Tx   d 8 00 00 00 00 00 00 00 00  Length = 246000 BitCount = 126 ID = 644
   0.880863 1  285             Tx   d 8 00 00 00 00 00 00 00 00  Length = 248000 BitCount = 127 ID = 645
   0.881815 1  161             Tx   d 5 32 23 5F 00 10  Length = 176000 BitCount = 91 ID = 353
   0.881844 1  551             Tx   d 8 68 5D 71 88 FF 7A 00 5F  Length = 224000 BitCount = 115 ID = 1361
   0.881853 1  1F9             Tx   d 6 20 1E 1B BC F8 FF  Length = 194000 BitCount = 100 ID = 505
   0.881861 1  181             Tx   d 8 1B BC 35 10 32 20 41 4E  Length = 226000 BitCount = 116 ID = 385
   0.882805 1  511             Tx   d 7 00 00 00 00 00 00 00  Length = 224000 BitCount = 115 ID = 1297
   0.882834 1  5DD             Tx   d 3 4C 00 00  Length = 144000 BitCount = 75 ID = 1501
   0.882843 1  65C             Tx   d 1 78  Length = 108000 BitCount = 57 ID = 1628
   0.889076 1  1A5             Tx   d 8 1F FF 01 00 00 00 00 00  Length = 240000 BitCount = 123 ID = 421
   0.891109 1  244             Tx   d 7 FE FE 00 00 00 00 FE  Length = 222000 BitCount = 114 ID = 580
   0.891142 1  354             Tx   d 8 00 00 00 00 00 00 00 00  Length = 244000 BitCount = 125 ID = 852
   0.891153 1  161             Tx   d 5 32 23 5E 00 10  Length = 172000 BitCount = 89 ID = 353
   0.891162 1  1F9             Tx   d 6 20 1E 1B BC F8 FF  Length = 194000 BitCount = 100 ID = 505
   0.891850 1  181             Tx   d 8 1B BC 35 10 32 20 41 4E  Length = 226000 BitCount = 116 ID = 385
   0.895030 1  1A5             Tx   d 8 8C A2 5F 12 47 96 5B 47  Length = 218000 BitCount = 112 ID = 421
   0.898049 1  1A5             Tx   d 8 2F FF 01 00 00 00 00 00  Length = 240000 BitCount = 123 ID = 421
   0.900049 1  284             Tx   d 8 00 00 00 00 00 00 00 00  Length = 246000 BitCount = 126 ID = 644
   0.900828 1  285             Tx   d 8 00 00 00 00 00 00 00 00  Length = 248000 BitCount = 127 ID = 645
   0.903979 1  161             Tx   d 5 32 23 5E 00 10  Length = 172000 BitCount = 89 ID = 353
   0.904023 1  1F9             Tx   d 6 20 1E 1B AA F8 FF  Length = 196000 BitCount = 101 ID = 505
   0.904034 1  181             Tx   d 8 1B AA 33 10 32 20 41 4E  Length = 226000 BitCount = 116 ID = 385
   0.908757 1  1A5             Tx   d 8 3F FF 01 00 00 00 00 00  Length = 242000 BitCount = 124 ID = 421
   0.911031 1  244             Tx   d 7 FE FE 00 00 00 00 FE  Length = 222000 BitCount = 114 ID = 580
   0.911089 1  161             Tx   d 5 32 23 5E 00 10  Length = 172000 BitCount = 89 ID = 353
   0.911769 1  1F9             Tx   d 6 20 1E 1B AA F8 FF  Length = 196000 BitCount = 101 ID = 505
   0.911801 1  181             Tx   d 8 1B AA 33 10 32 20 41 4E  Length = 226000 BitCount = 116 ID = 385
   0.918001 1  1A5             Tx   d 8 4F FF 01 00 00 00 00 00  Length = 238000 BitCount = 122 ID = 421
   0.921015 1  284             Tx   d 8 00 00 00 00 00 00 00 00  Length = 246000 BitCount = 126 ID = 644
   0.921049 1  285             Tx   d 8 00 00 00 00 00 00 00 00  Length = 248000 BitCount = 127 ID = 645
   0.921747 1  161             Tx   d 5 32 23 5E 00 10  Length = 172000 BitCount = 89 ID = 353
   0.921780 1  1F9             Tx   d 6 20 1E 1B AA F8 FF  Length = 196000 BitCount = 101 ID = 505
   0.922752 1  181             Tx   d 8 1B AA 33 10 32 20 41 4E  Length = 226000 BitCount = 116 ID = 385
   0.928747 1  1A5             Tx   d 8 5F FF 01 00 00 00 00 00  Length = 240000 BitCount = 123 ID = 421
   0.930725 1  244             Tx   d 7 FE FE 00 00 00 00 FE  Length = 222000 BitCount = 114 ID = 580
   0.930770 1  354             Tx   d 8 00 00 00 00 00 00 00 00  Length = 244000 BitCount = 125 ID = 852
   0.930782 1  161             Tx   d 5 32 23 5E 00 10  Length = 172000 BitCount = 89 ID = 353
   0.931722 1  1F9             Tx   d 6 20 1E 1B AA F8 FF  Length = 196000 BitCount = 101 ID = 505
   0.931756 1  181             Tx   d 8 1B AA 33 10 32 20 41 4E  Length = 226000 BitCount = 116 ID = 385
   0.934758 1  181             Tx   d 8 1B AA 33 10 32 20 41 4E  Length = 226000 BitCount = 116 ID = 385
   0.938681 1  1A5             Tx   d 8 6F FF 01 00 00 00 00 00  Length = 238000 BitCount = 122 ID = 421
   0.940698 1  284             Tx   d 8 00 00 00 00 00 00 00 00  Length = 246000 BitCount = 126 ID = 644
   0.940743 1  285             Tx   d 8 00 00 00 00 00 00 00 00  Length = 248000 BitCount = 127 ID = 645
   0.940755 1  161             Tx   d 5 32 23 5E 00 10  Length = 172000 BitCount = 89 ID = 353
   0.941706 1  1F9             Tx   d 6 20 1E 1B 74 F8 FF  Length = 192000 BitCount = 99 ID = 505
   0.941741 1  181             Tx   d 8 1B 74 35 10 32 20 41 4E  Length = 228000 BitCount = 117 ID = 385
   0.942702 1  161             Tx   d 5 44 70 9C 5B 33  Length = 168000 BitCount = 87 ID = 353
   0.948610 1  1A5             Tx   d 8 7F FF 01 00 00 00 00 00  Length = 240000 BitCount = 123 ID = 421
   0.950647 1  244             Tx   d 7 FE FE 00 00 00 00 FE  Length = 222000 BitCount = 114 ID = 580
   0.951648 1  161             Tx   d 5 32 23 5E 00 10  Length = 172000 BitCount = 89 ID = 353
   0.951675 1  1F9             Tx   d 6 20 1E 1B 74 F8 FF  Length = 192000 BitCount = 99 ID = 505
   0.951682 1  181             Tx   d 8 1B 74 35 10 32 20 41 4E  Length = 228000 BitCount = 117 ID = 385
   0.958075 1  1A5             Tx   d 8 8F FF 01 00 00 00 00 00  Length = 238000 BitCount = 122 ID = 421
   0.960538 1  284             Tx   d 8 00 00 00 00 00 00 00 00  Length = 246000 BitCount = 126 ID = 644
   0.960548 1  285             Tx   d 8 00 00 00 00 00 00 00 00  Length = 248000 BitCount = 127 ID = 645
   0.961549 1  1A5             Tx   d 8 15 02 75 9A EB E9 8C 35  Length = 222000 BitCount = 114 ID = 421
   0.961555 1  161             Tx   d 5 32 23 5E 00 10  Length = 172000 BitCount = 89 ID = 353
   0.961561 1  1F9             Tx   d 6 20 1E 1B 74 F8 FF  Length = 192000 BitCount = 99 ID = 505
   0.961563 1  181             Tx   d 8 1B 74 35 10 32 20 41 4E  Length = 228000 BitCount = 117 ID = 385
   0.968515 1  1A5             Tx   d 8 9F FF 01 00 00 00 00 00  Length = 238000 BitCount = 122 ID = 421
   0.970512 1  244             Tx   d 7 FE FE 00 00 00 00 FE  Length = 222000 BitCount = 114 ID = 580
   0.970522 1  354             Tx   d 8 00 00 00 00 00 00 00 00  Length = 244000 BitCount = 125 ID = 852
   0.971511 1  1A5             Tx   d 8 C1 1F 5A FB D2 10 B8 EB  Length = 222000 BitCount = 114 ID = 421
   0.972508 1  161             Tx   d 5 32 23 5E 00 10  Length = 172000 BitCount = 89 ID = 353
   0.972516 1  1F9             Tx   d 6 20 1E 1B 7C F8 FF  Length = 196000 BitCount = 101 ID = 505
   0.972540 1  181             Tx   d 8 1B 7C 36 10 32 20 41 4E  Length = 230000 BitCount = 118 ID = 385
   0.976493 1  161             Tx   d 5 23 45 57 C8 B1  Length = 170000 BitCount = 88 ID = 353
   0.978488 1  1A5             Tx   d 8 AF FF 01 00 00 00 00 00  Length = 242000 BitCount = 124 ID = 421
   0.980491 1  284             Tx   d 8 00 00 00 00 00 00 00 00  Length = 246000 BitCount = 126 ID = 644
   0.980497 1  285             Tx   d 8 00 00 00 00 00 00 00 00  Length = 248000 BitCount = 127 ID = 645
   0.981481 1  161             Tx   d 5 32 23 5E 00 10  Length = 172000 BitCount = 89 ID = 353
   0.981488 1  551             Tx   d 8 68 5D 71 88 FF 7A 00 5F  Length = 224000 BitCount = 115 ID = 1361
   0.981491 1  1F9             Tx   d 6 20 1E 1B 7C F8 FF  Length = 196000 BitCount = 101 ID = 505
   0.981493 1  181             Tx   d 8 1B 7C 36 10 32 20 41 4E  Length = 230000 BitCount = 118 ID = 385
   0.982481 1  511             Tx   d 7 00 00 00 00 00 00 00  Length = 224000 BitCount = 115 ID = 1297
   0.982489 1  5DD             Tx   d 3 4C 00 00  Length = 144000 BitCount = 75 ID = 1501
   0.982491 1  65C             Tx   d 1 78  Length = 108000 BitCount = 57 ID = 1628
   0.988466 1  1A5             Tx   d 8 BF FF 01 00 00 00 00 00  Length = 238000 BitCount = 122 ID = 421
   0.990460 1  244             Tx   d 7 FE FE 00 00 00 00 FE  Length = 222000 BitCount = 114 ID = 580
   0.991454 1  161             Tx   d 5 32 23 5E 00 10  Length = 172000 BitCount = 89 ID = 353
   0.991461 1  1F9             Tx   d 6 20 1E 1B 7C F8 FF  Length = 196000 BitCount = 101 ID = 505
   0.991464 1  181             Tx   d 8 1B 7C 36 10 32 20 41 4E  Length = 230000 BitCount = 118 ID = 385
   0.998928 1  1A5             Tx   d 8 CF FF 01 00 00 00 00 00  Length = 242000 BitCount = 124 ID = 421
   1.000980 CAN 1 Status:chip status error active
   1.000991 1  284             Tx   d 8 00 00 00 00 00 00 00 00  Length = 246000 BitCount = 126 ID = 644
   1.000999 1  285             Tx   d 8 00 00 00 00 00 00 00 00  Length = 248000 BitCount = 127 ID = 645
   1.004085 1  161             Tx   d 5 32 23 5E 00 10  Length = 172000 BitCount = 89 ID = 353
   1.004101 1  1F9             Tx   d 6 20 1E 1B 7C F8 FF  Length = 196000 BitCount = 101 ID = 505
   1.004104 1  181             Tx   d 8 1B 7C 36 10 32 20 41 4E  Length = 230000 BitCount = 118 ID = 385
   1.009338 1  1A5             Tx   d 8 DF FF 01 00 00 00 00 00  Length = 238000 BitCount = 122 ID = 421
   1.011468 1  244             Tx   d 7 FE FE 00 00 00 00 FE  Length = 222000 BitCount = 114 ID = 580
   1.011478 1  354             Tx   d 8 00 00 00 00 00 00 00 00  Length = 244000 BitCount = 125 ID = 852
   1.011481 1  161             Tx   d 5 32 23 5E 00 10  Length = 172000 BitCount = 89 ID = 353
   1.011483 1  1F9             Tx   d 6 20 1E 1B B6 F8 FF  Length = 192000 BitCount = 99 ID = 505
   1.011486 1  181             Tx   d 8 1B B6 36 10 32 20 41 4E  Length = 228000 BitCount = 117 ID = 385
   1.019296 1  1A5             Tx   d 8 EF FF 01 00 00 00 00 00  Length = 240000 BitCount = 123 ID = 421
   1.021217 1  284             Tx   d 8 00 00 00 00 00 00 00 00  Length = 246000 BitCount = 126 ID = 644
   1.021250 1  285             Tx   d 8 00 00 00 00 00 00 00 00  Length = 248000 BitCount = 127 ID = 645
   1.021260 1  161             Tx   d 5 32 23 5E 00 10  Length = 172000 BitCount = 89 ID = 353
   1.021270 1  1F9             Tx   d 6 20 1E 1B B6 F8 FF  Length = 192000 BitCount = 99 ID = 505
   1.021994 1  181             Tx   d 8 1B B6 36 10 32 20 41 4E  Length = 228000 BitCount = 117 ID = 385
   1.028995 1  1A5             Tx   d 8 FF FF 01 00 00 00 00 00  Length = 240000 BitCount = 123 ID = 421
   1.031002 1  244             Tx   d 7 FE FE 00 00 00 00 FE  Length = 222000 BitCount = 114 ID = 580
   1.031065 1  161             Tx   d 5 32 23 5E 00 10  Length = 172000 BitCount = 89 ID = 353
   1.031085 1  1F9             Tx   d 6 20 1E 1B B6 F8 FF  Length = 192000 BitCount = 99 ID = 505
   1.031942 1  181             Tx   d 8 1B B6 36 10 32 20 41 4E  Length = 228000 BitCount = 117 ID = 385
   1.032923 1  161             Tx   d 5 6F F6 A5 C8 1F  Length = 174000 BitCount = 90 ID = 353
   1.036957 1  1A5             Tx   d 8 1B 30 06 B0 F6 3E 48 96  Length = 224000 BitCount = 115 ID = 421
   1.037952 1  1A5             Tx   d 8 0F FF 01 00 00 00 00 00  Length = 240000 BitCount = 123 ID = 421
   1.040205 1  284             Tx   d 8 00 00 00 00 00 00 00 00  Length = 246000 BitCount = 126 ID = 644
   1.040937 1  285             Tx   d 8 00 00 00 00 00 00 00 00  Length = 248000 BitCount = 127 ID = 645
   1.041917 1  161             Tx   d 5 32 23 5E 00 10  Length = 172000 BitCount = 89 ID = 353
   1.041952 1  1F9             Tx   d 6 20 1E 1B EE F8 FF  Length = 196000 BitCount = 101 ID = 505
   1.041963 1  181             Tx   d 8 1B EE 35 10 32 20 41 4E  Length = 230000 BitCount = 118 ID = 385
   1.044171 1  161             Tx   d 5 3A BC 9A 7C A2  Length = 170000 BitCount = 88 ID = 353
   1.046903 1  1A5             Tx   d 8 47 DE 37 11 56 45 F4 62  Length = 220000 BitCount = 113 ID = 421
   1.048928 1  1A5             Tx   d 8 1F FF 01 00 00 00 00 00  Length = 240000 BitCount = 123 ID = 421
   1.050951 1  244             Tx   d 7 FE FE 00 00 00 00 FE  Length = 222000 BitCount = 114 ID = 580
   1.050980 1  354             Tx   d 8 00 00 00 00 00 00 00 00  Length = 244000 BitCount = 125 ID = 852
   1.050990 1  161             Tx   d 5 32 23 5E 00 10  Length = 172000 BitCount = 89 ID = 353
   1.050999 1  1F9             Tx   d 6 20 1E 1B EE F8 FF  Length = 196000 BitCount = 101 ID = 505
   1.052007 1  181             Tx   d 8 1B EE 35 10 32 20 41 4E  Length = 230000 BitCount = 118 ID = 385
   1.053013 1  1A5             Tx   d 8 09 2F 6F 39 01 73 AE 46  Length = 224000 BitCount = 115 ID = 421
   1.058269 1  1A5             Tx   d 8 2F FF 01 00 00 00 00 00  Length = 240000 BitCount = 123 ID = 421
   1.060022 1  1A5             Tx   d 8 73 4F 24 90 90 FA 6D FB  Length = 220000 BitCount = 113 ID = 421
   1.060987 1  284             Tx   d 8 00 00 00 00 00 00 00 00  Length = 246000 BitCount = 126 ID = 644
   1.061035 1  285             Tx   d 8 00 00 00 00 00 00 00 00  Length = 248000 BitCount = 127 ID = 645
   1.061063 1  161             Tx   d 5 32 23 5E 00 10  Length = 172000 BitCount = 89 ID = 353
   1.061073 1  1F9             Tx   d 6 20 1E 1B EE F8 FF  Length = 196000 BitCount = 101 ID = 505
   1.061990 1  181             Tx   d 8 1B EE 35 10 32 20 41 4E  Length = 230000 BitCount = 118 ID = 385
   1.069259 1  1A5             Tx   d 8 3F FF 01 00 00 00 00 00  Length = 242000 BitCount = 124 ID = 421
   1.071026 1  244             Tx   d 7 FE FE 00 00 00 00 FE  Length = 222000 BitCount = 114 ID = 580
   1.071082 1  161             Tx   d 5 97 43 36 67 0D  Length = 168000 BitCount = 87 ID = 353
   1.073000 1  161             Tx   d 5 32 23 5E 00 10  Length = 172000 BitCount = 89 ID = 353
   1.073035 1  1F9             Tx   d 6 20 1E 1B E8 F8 FF  Length = 194000 BitCount = 100 ID = 505
   1.073949 1  181             Tx   d 8 1B E8 34 10 32 20 41 4E  Length = 236000 BitCount = 121 ID = 385
   1.076253 1  1A5             Tx   d 8 11 F7 B3 09 1A EC 6C 86  Length = 222000 BitCount = 114 ID = 421
   1.076274 1  161             Tx   d 5 BE A4 8A 2F C2  Length = 174000 BitCount = 90 ID = 353
   1.078193 1  1A5             Tx   d 8 4F FF 01 00 00 00 00 00  Length = 238000 BitCount = 122 ID = 421
   1.080236 1  284             Tx   d 8 00 00 00 00 00 00 00 00  Length = 246000 BitCount = 126 ID = 644
   1.081007 1  285             Tx   d 8 00 00 00 00 00 00 00 00  Length = 248000 BitCount = 127 ID = 645
   1.081957 1  161             Tx   d 5 32 23 5E 00 10  Length = 172000 BitCount = 89 ID = 353
   1.081993 1  551             Tx   d 8 69 5D 71 88 FF 7A 00 5F  Length = 224000 BitCount = 115 ID = 1361
   1.082004 1  1F9             Tx   d 6 20 1E 1B E8 F8 FF  Length = 194000 BitCount = 100 ID = 505
   1.082014 1  181             Tx   d 8 1B E8 34 10 32 20 41 4E  Length = 236000 BitCount = 121 ID = 385
   1.082977 1  511             Tx   d 7 00 00 00 00 00 00 00  Length = 224000 BitCount = 115 ID = 1297
   1.083011 1  5DD             Tx   d 3 4C 00 00  Length = 144000 BitCount = 75 ID = 1501
   1.083022 1  65C             Tx   d 1 78  Length = 108000 BitCount = 57 ID = 1628
   1.086186 1  1A5             Tx   d 8 97 D2 48 12 06 C1 51 70  Length = 228000 BitCount = 117 ID = 421
   1.089190 1  1A5             Tx   d 8 5F FF 01 00 00 00 00 00  Length = 240000 BitCount = 123 ID = 421
   1.091203 1  244             Tx   d 7 FE FE 00 00 00 00 FE  Length = 222000 BitCount = 114 ID = 580
   1.091260 1  354             Tx   d 8 00 00 00 00 00 00 00 00  Length = 244000 BitCount = 125 ID = 852
   1.091272 1  161             Tx   d 5 32 23 5E 00 10  Length = 172000 BitCount = 89 ID = 353
   1.091949 1  1F9             Tx   d 6 20 1E 1B E8 F8 FF  Length = 194000 BitCount = 100 ID = 505
   1.091990 1  181             Tx   d 8 1B E8 34 10 32 20 41 4E  Length = 236000 BitCount = 121 ID = 385
   1.092002 1  181             Tx   d 8 1B E8 34 10 32 20 41 4E  Length = 236000 BitCount = 121 ID = 385
   1.098175 1  1A5             Tx   d 8 6F FF 01 00 00 00 00 00  Length = 238000 BitCount = 122 ID = 421
   1.098928 1  161             Tx   d 5 DE A7 79 A3 AE  Length = 168000 BitCount = 87 ID = 353
   1.100192 1  284             Tx   d 8 00 00 00 00 00 00 00 00  Length = 246000 BitCount = 126 ID = 644
   1.100946 1  285             Tx   d 8 00 00 00 00 00 00 00 00  Length = 248000 BitCount = 127 ID = 645
   1.100982 1  161             Tx   d 5 32 23 5E 00 10  Length = 172000 BitCount = 89 ID = 353
   1.100993 1  1F9             Tx   d 6 20 1E 1B E8 F8 FF  Length = 194000 BitCount = 100 ID = 505
   1.101892 1  181             Tx   d 8 1B E8 34 10 32 20 41 4E  Length = 236000 BitCount = 121 ID = 385
   1.108096 1  1A5             Tx   d 8 85 4A 1D 4C E4 EB 7A 68  Length = 218000 BitCount = 112 ID = 421
   1.108126 1  161             Tx   d 5 F3 73 81 48 93  Length = 176000 BitCount = 91 ID = 353
   1.109148 1  1A5             Tx   d 8 7F FF 01 00 00 00 00 00  Length = 240000 BitCount = 123 ID = 421
   1.110867 1  244             Tx   d 7 FE FE 00 00 00 00 FE  Length = 222000 BitCount = 114 ID = 580
   1.110914 1  161             Tx   d 5 32 23 5E 00 10  Length = 172000 BitCount = 89 ID = 353
   1.111861 1  1F9             Tx   d 6 20 1E 1C 16 F8 FF  Length = 194000 BitCount = 100 ID = 505
   1.111894 1  181             Tx   d 8 1C 16 35 10 32 20 41 4E  Length = 228000 BitCount = 117 ID = 385
   1.114149 1  1A5             Tx   d 8 FD BA 05 F1 01 61 D0 B8  Length = 226000 BitCount = 116 ID = 421
   1.118025 1  1A5             Tx   d 8 8F FF 01 00 00 00 00 00  Length = 238000 BitCount = 122 ID = 421
   1.118889 1  1A5             Tx   d 8 60 56 77 92 C1 41 67 35  Length = 222000 BitCount = 114 ID = 421
   1.120142 1  284             Tx   d 8 00 00 00 00 00 00 00 00  Length = 246000 BitCount = 126 ID = 644
   1.120881 1  285             Tx   d 8 00 00 00 00 00 00 00 00  Length = 248000 BitCount = 127 ID = 645
   1.121834 1  161             Tx   d 5 32 23 5E 00 10  Length = 172000 BitCount = 89 ID = 353
   1.121868 1  1F9             Tx   d 6 20 1E 1C 16 F8 FF  Length = 194000 BitCount = 100 ID = 505
   1.121880 1  181             Tx   d 8 1C 16 35 10 32 20 41 4E  Length = 228000 BitCount = 117 ID = 385
   1.128861 1  1A5             Tx   d 8 9F FF 01 00 00 00 00 00  Length = 238000 BitCount = 122 ID = 421
   1.130801 1  244             Tx   d 7 FE FE 00 00 00 00 FE  Length = 222000 BitCount = 114 ID = 580
   1.130847 1  354             Tx   d 8 00 00 00 00 00 00 00 00  Length = 244000 BitCount = 125 ID = 852
   1.130859 1  161             Tx   d 5 32 23 5E 00 10  Length = 172000 BitCount = 89 ID = 353
   1.131794 1  1F9             Tx   d 6 20 1E 1C 16 F8 FF  Length = 194000 BitCount = 100 ID = 505
   1.131828 1  181             Tx   d 8 1C 16 35 10 32 20 41 4E  Length = 228000 BitCount = 117 ID = 385
   1.137909 1  1A5             Tx   d 8 AF FF 01 00 00 00 00 00  Length = 242000 BitCount = 124 ID = 421
   1.140900 1  284             Tx   d 8 00 00 00 00 00 00 00 00  Length = 246000 BitCount = 126 ID = 644
   1.140946 1  285             Tx   d 8 00 00 00 00 00 00 00 00  Length = 248000 BitCount = 127 ID = 645
   1.140958 1  161             Tx   d 5 32 23 5E 00 10  Length = 172000 BitCount = 89 ID = 353
   1.141835 1  1F9             Tx   d 6 20 1E 1C 24 F8 FF  Length = 194000 BitCount = 100 ID = 505
   1.141870 1  181             Tx   d 8 1C 24 34 10 32 20 41 4E  Length = 230000 BitCount = 118 ID = 385
   1.144917 1  1A5             Tx   d 8 E6 01 60 13 EE 8B 2B 41  Length = 226000 BitCount = 116 ID = 421
   1.148850 1  1A5             Tx   d 8 BF FF 01 00 00 00 00 00  Length = 238000 BitCount = 122 ID = 421
   1.150846 1  244             Tx   d 7 FE FE 00 00 00 00 FE  Length = 222000 BitCount = 114 ID = 580
   1.150878 1  161             Tx   d 5 32 23 5E 00 10  Length = 172000 BitCount = 89 ID = 353
   1.151822 1  1F9             Tx   d 6 20 1E 1C 24 F8 FF  Length = 194000 BitCount = 100 ID = 505
   1.151846 1  181             Tx   d 8 1C 24 34 10 32 20 41 4E  Length = 230000 BitCount = 118 ID = 385
   1.157768 1  1A5             Tx   d 8 CF FF 01 00 00 00 00 00  Length = 242000 BitCount = 124 ID = 421
   1.160719 1  284             Tx   d 8 00 00 00 00 00 00 00 00  Length = 246000 BitCount = 126 ID = 644
   1.160730 1  285             Tx   d 8 00 00 00 00 00 00 00 00  Length = 248000 BitCount = 127 ID = 645
   1.161719 1  161             Tx   d 5 32 23 5E 00 10  Length = 172000 BitCount = 89 ID = 353
   1.161727 1  1F9             Tx   d 6 20 1E 1C 24 F8 FF  Length = 194000 BitCount = 100 ID = 505
   1.161730 1  181             Tx   d 8 1C 24 34 10 32 20 41 4E  Length = 230000 BitCount = 118 ID = 385
   1.162752 1  181             Tx   d 8 1C 24 34 10 32 20 41 4E  Length = 230000 BitCount = 118 ID = 385
   1.168750 1  1A5             Tx   d 8 DF FF 01 00 00 00 00 00  Length = 238000 BitCount = 122 ID = 421
   1.170754 1  244             Tx   d 7 FE FE 00 00 00 00 FE  Length = 222000 BitCount = 114 ID = 580
   1.170765 1  354             Tx   d 8 00 00 00 00 00 00 00 00  Length = 244000 BitCount = 125 ID = 852
   1.172712 1  161             Tx   d 5 32 23 5E 00 10  Length = 172000 BitCount = 89 ID = 353
   1.172746 1  1F9             Tx   d 6 20 1E 1C 4C F8 FF  Length = 194000 BitCount = 100 ID = 505
   1.173736 1  181             Tx   d 8 1C 4C 34 10 32 20 41 4E  Length = 230000 BitCount = 118 ID = 385
   1.178728 1  1A5             Tx   d 8 EF FF 01 00 00 00 00 00  Length = 240000 BitCount = 123 ID = 421
   1.180721 1  284             Tx   d 8 00 00 00 00 00 00 00 00  Length = 246000 BitCount = 126 ID = 644
   1.180731 1  285             Tx   d 8 00 00 00 00 00 00 00 00  Length = 248000 BitCount = 127 ID = 645
   1.181715 1  161             Tx   d 5 32 23 5E 00 10  Length = 172000 BitCount = 89 ID = 353
   1.181723 1  551             Tx   d 8 69 5E 71 88 FF 7A 00 60  Length = 226000 BitCount = 116 ID = 1361
   1.181725 1  1F9             Tx   d 6 20 1E 1C 4C F8 FF  Length = 194000 BitCount = 100 ID = 505
   1.181727 1  181             Tx   d 8 1C 4C 34 10 32 20 41 4E  Length = 230000 BitCount = 118 ID = 385
   1.182732 1  511             Tx   d 7 00 00 00 00 00 00 00  Length = 224000 BitCount = 115 ID = 1297
   1.182739 1  5DD             Tx   d 3 4C 00 00  Length = 144000 BitCount = 75 ID = 1501
   1.182742 1  65C             Tx   d 1 78  Length = 108000 BitCount = 57 ID = 1628
   1.182745 1  161             Tx   d 5 4D 34 F1 D7 29  Length = 168000 BitCount = 87 ID = 353
   1.186736 1  161             Tx   d 5 81 3B C5 5F 2C  Length = 172000 BitCount = 89 ID = 353
   1.188780 1  1A5             Tx   d 8 FF FF 01 00 00 00 00 00  Length = 240000 BitCount = 123 ID = 421
   1.190706 1  244             Tx   d 7 FE FE 00 00 00 00 FE  Length = 222000 BitCount = 114 ID = 580
   1.191686 1  161             Tx   d 5 32 23 5E 00 10  Length = 172000 BitCount = 89 ID = 353
   1.191694 1  1F9             Tx   d 6 20 1E 1C 4C F8 FF  Length = 194000 BitCount = 100 ID = 505
   1.191696 1  181             Tx   d 8 1C 4C 34 10 32 20 41 4E  Length = 230000 BitCount = 118 ID = 385
   1.194714 1  181             Tx   d 8 1C 4C 34 10 32 20 41 4E  Length = 230000 BitCount = 118 ID = 385
   1.197983 1  1A5             Tx   d 8 0F FF 01 00 00 00 00 00  Length = 240000 BitCount = 123 ID = 421
   1.200965 1  284             Tx   d 8 00 00 00 00 00 00 00 00  Length = 246000 BitCount = 126 ID = 644
   1.200972 1  285             Tx   d 8 00 00 00 00 00 00 00 00  Length = 248000 BitCount = 127 ID = 645
   1.200975 1  161             Tx   d 5 32 23 5E 00 10  Length = 172000 BitCount = 89 ID = 353
   1.201989 1  1F9             Tx   d 6 20 1E 1C 4C F8 FF  Length = 194000 BitCount = 100 ID = 505
   1.202003 1  181             Tx   d 8 1C 4C 34 10 32 20 41 4E  Length = 230000 BitCount = 118 ID = 385
   1.202008 1  1A5             Tx   d 8 1A A4 66 24 C2 93 4A B7  Length = 218000 BitCount = 112 ID = 421
   1.209096 1  1A5             Tx   d 8 1F FF 01 00 00 00 00 00  Length = 240000 BitCount = 123 ID = 421
   1.211196 1  244             Tx   d 7 FE FE 00 00 00 00 FE  Length = 222000 BitCount = 114 ID = 580
   1.211206 1  354             Tx   d 8 00 00 00 00 00 00 00 00  Length = 244000 BitCount = 125 ID = 852
   1.211209 1  161             Tx   d 5 32 23 5E 00 10  Length = 172000 BitCount = 89 ID = 353
   1.211211 1  1F9             Tx   d 6 20 1E 1C 3A F8 FF  Length = 192000 BitCount = 99 ID = 505
   1.211213 1  181             Tx   d 8 1C 3A 33 10 32 20 41 4E  Length = 226000 BitCount = 116 ID = 385
   1.213177 1  161             Tx   d 5 0A 94 BA ED E6  Length = 168000 BitCount = 87 ID = 353
   1.218792 1  1A5             Tx   d 8 2F FF 01 00 00 00 00 00  Length = 240000 BitCount = 123 ID = 421
   1.220923 1  284             Tx   d 8 00 00 00 00 00 00 00 00  Length = 246000 BitCount = 126 ID = 644
   1.220930 1  285             Tx   d 8 00 00 00 00 00 00 00 00  Length = 248000 BitCount = 127 ID = 645
   1.220933 1  161             Tx   d 5 32 23 5E 00 10  Length = 172000 BitCount = 89 ID = 353
   1.222026 1  1F9             Tx   d 6 20 1E 1C 3A F8 FF  Length = 192000 BitCount = 99 ID = 505
   1.222040 1  181             Tx   d 8 1C 3A 33 10 32 20 41 4E  Length = 226000 BitCount = 116 ID = 385
   1.228665 1  1A5             Tx   d 8 3F FF 01 00 00 00 00 00  Length = 242000 BitCount = 124 ID = 421
   1.230752 1  244             Tx   d 7 FE FE 00 00 00 00 FE  Length = 222000 BitCount = 114 ID = 580
   1.232083 1  161             Tx   d 5 32 23 5E 00 10  Length = 172000 BitCount = 89 ID = 353
   1.232090 1  1F9             Tx   d 6 20 1E 1C 3A F8 FF  Length = 192000 BitCount = 99 ID = 505
   1.232093 1  181             Tx   d 8 1C 3A 33 10 32 20 41 4E  Length = 226000 BitCount = 116 ID = 385
   1.232098 1  181             Tx   d 8 1C 3A 33 10 32 20 41 4E  Length = 226000 BitCount = 116 ID = 385
   1.238140 1  1A5             Tx   d 8 4F FF 01 00 00 00 00 00  Length = 238000 BitCount = 122 ID = 421
   1.240158 1  284             Tx   d 8 00 00 00 00 00 00 00 00  Length = 246000 BitCount = 126 ID = 644
   1.240758 1  285             Tx   d 8 00 00 00 00 00 00 00 00  Length = 248000 BitCount = 127 ID = 645
   1.242188 1  161             Tx   d 5 32 23 5E 00 10  Length = 172000 BitCount = 89 ID = 353
   1.242203 1  1F9             Tx   d 6 20 1E 1C 40 F8 FF  Length = 194000 BitCount = 100 ID = 505
   1.242205 1  181             Tx   d 8 1C 40 33 10 32 20 41 4E  Length = 228000 BitCount = 117 ID = 385
   1.249133 1  1A5             Tx   d 8 5F FF 01 00 00 00 00 00  Length = 240000 BitCount = 123 ID = 421
   1.250750 1  244             Tx   d 7 FE FE 00 00 00 00 FE  Length = 222000 BitCount = 114 ID = 580
   1.250761 1  354             Tx   d 8 00 00 00 00 00 00 00 00  Length = 244000 BitCount = 125 ID = 852
   1.250764 1  161             Tx   d 5 32 23 5E 00 10  Length = 172000 BitCount = 89 ID = 353
   1.251749 1  1F9             Tx   d 6 20 1E 1C 40 F8 FF  Length = 194000 BitCount = 100 ID = 505
   1.251758 1  181             Tx   d 8 1C 40 33 10 32 20 41 4E  Length = 228000 BitCount = 117 ID = 385
   1.258103 1  161             Tx   d 5 B6 2B 72 A8 2A  Length = 174000 BitCount = 90 ID = 353
   1.258116 1  1A5             Tx   d 8 6F FF 01 00 00 00 00 00  Length = 238000 BitCount = 122 ID = 421
   1.260167 1  284             Tx   d 8 00 00 00 00 00 00 00 00  Length = 246000 BitCount = 126 ID = 644
   1.260752 1  285             Tx   d 8 00 00 00 00 00 00 00 00  Length = 248000 BitCount = 127 ID = 645
   1.260766 1  161             Tx   d 5 32 23 5E 00 10  Length = 172000 BitCount = 89 ID = 353
   1.261704 1  1F9             Tx   d 6 20 1E 1C 40 F8 FF  Length = 194000 BitCount = 100 ID = 505
   1.261717 1  181             Tx   d 8 1C 40 33 10 32 20 41 4E  Length = 228000 BitCount = 117 ID = 385
   1.265089 1  161             Tx   d 5 B7 0E 8F 29 FB  Length = 170000 BitCount = 88 ID = 353
   1.268869 1  1A5             Tx   d 8 7F FF 01 00 00 00 00 00  Length = 240000 BitCount = 123 ID = 421
   1.271114 1  244             Tx   d 7 FE FE 00 00 00 00 FE  Length = 222000 BitCount = 114 ID = 580
   1.272676 1  161             Tx   d 5 32 23 5E 00 10  Length = 172000 BitCount = 89 ID = 353
   1.272695 1  1F9             Tx   d 6 20 1E 1C 20 F8 FF  Length = 194000 BitCount = 100 ID = 505
   1.272699 1  181             Tx   d 8 1C 20 33 10 32 20 41 4E  Length = 228000 BitCount = 117 ID = 385
   1.278019 1  1A5             Tx   d 8 8F FF 01 00 00 00 00 00  Length = 238000 BitCount = 122 ID = 421
   1.280027 1  284             Tx   d 8 00 00 00 00 00 00 00 00  Length = 246000 BitCount = 126 ID = 644
   1.280657 1  285             Tx   d 8 00 00 00 00 00 00 00 00  Length = 248000 BitCount = 127 ID = 645
   1.281983 1  161             Tx   d 5 32 23 5E 00 10  Length = 172000 BitCount = 89 ID = 353
   1.282003 1  551             Tx   d 8 68 5E 71 88 FF 7A 00 60  Length = 224000 BitCount = 115 ID = 1361
   1.282008 1  1F9             Tx   d 6 20 1E 1C 20 F8 FF  Length = 194000 BitCount = 100 ID = 505
   1.282012 1  181             Tx   d 8 1C 20 33 10 32 20 41 4E  Length = 228000 BitCount = 117 ID = 385
   1.282016 1  511             Tx   d 7 00 00 00 00 00 00 00  Length = 224000 BitCount = 115 ID = 1297
   1.282640 1  5DD             Tx   d 3 4C 00 00  Length = 144000 BitCount = 75 ID = 1501
   1.282655 1  65C             Tx   d 1 78  Length = 108000 BitCount = 57 ID = 1628
   1.283671 1  1A5             Tx   d 8 22 49 1B 3A CB D9 FC 80  Length = 222000 BitCount = 114 ID = 421
   1.288933 1  1A5             Tx   d 8 9F FF 01 00 00 00 00 00  Length = 238000 BitCount = 122 ID = 421
   1.290983 1  161             Tx   d 5 56 D7 26 24 10  Length = 172000 BitCount = 89 ID = 353
   1.291006 1  244             Tx   d 7 FE FE 00 00 00 00 FE  Length = 222000 BitCount = 114 ID = 580
   1.291029 1  354             Tx   d 8 00 00 00 00 00 00 00 00  Length = 244000 BitCount = 125 ID = 852
   1.291035 1  161             Tx   d 5 32 23 5E 00 10  Length = 172000 BitCount = 89 ID = 353
   1.291041 1  1F9             Tx   d 6 20 1E 1C 20 F8 FF  Length = 194000 BitCount = 100 ID = 505
   1.291648 1  181             Tx   d 8 1C 20 33 10 32 20 41 4E  Length = 228000 BitCount = 117 ID = 385
   1.297905 1  1A5             Tx   d 8 AF FF 01 00 00 00 00 00  Length = 242000 BitCount = 124 ID = 421
   1.300693 1  284             Tx   d 8 00 00 00 00 00 00 00 00  Length = 246000 BitCount = 126 ID = 644
   1.300718 1  285             Tx   d 8 00 00 00 00 00 00 00 00  Length = 248000 BitCount = 127 ID = 645
   1.301791 1  161             Tx   d 5 32 23 5E 00 10  Length = 172000 BitCount = 89 ID = 353
   1.301823 1  1F9             Tx   d 6 20 1E 1C 20 F8 FF  Length = 194000 BitCount = 100 ID = 505
   1.301830 1  181             Tx   d 8 1C 20 33 10 32 20 41 4E  Length = 228000 BitCount = 117 ID = 385
   1.308656 1  1A5             Tx   d 8 BF FF 01 00 00 00 00 00  Length = 238000 BitCount = 122 ID = 421
   1.310722 1  244             Tx   d 7 FE FE 00 00 00 00 FE  Length = 222000 BitCount = 114 ID = 580
   1.311712 1  161             Tx   d 5 32 23 5E 00 10  Length = 172000 BitCount = 89 ID = 353
   1.311740 1  1F9             Tx   d 6 20 1E 1C 2C F8 FF  Length = 192000 BitCount = 99 ID = 505
   1.311750 1  181             Tx   d 8 1C 2C 34 10 32 20 41 4E  Length = 232000 BitCount = 119 ID = 385
   1.312708 1  161             Tx   d 5 BC A0 A1 AB 3D  Length = 170000 BitCount = 88 ID = 353
   1.319001 1  1A5             Tx   d 8 CF FF 01 00 00 00 00 00  Length = 242000 BitCount = 124 ID = 421
   1.321013 1  284             Tx   d 8 00 00 00 00 00 00 00 00  Length = 246000 BitCount = 126 ID = 644
   1.321042 1  285             Tx   d 8 00 00 00 00 00 00 00 00  Length = 248000 BitCount = 127 ID = 645
   1.321724 1  161             Tx   d 5 32 23 5E 00 10  Length = 172000 BitCount = 89 ID = 353
   1.321753 1  1F9             Tx   d 6 20 1E 1C 2C F8 FF  Length = 192000 BitCount = 99 ID = 505
   1.321762 1  181             Tx   d 8 1C 2C 34 10 32 20 41 4E  Length = 232000 BitCount = 119 ID = 385
   1.328721 1  1A5             Tx   d 8 DF FF 01 00 00 00 00 00  Length = 238000 BitCount = 122 ID = 421
   1.330699 1  244             Tx   d 7 FE FE 00 00 00 00 FE  Length = 222000 BitCount = 114 ID = 580
   1.330738 1  354             Tx   d 8 00 00 00 00 00 00 00 00  Length = 244000 BitCount = 125 ID = 852
   1.330747 1  161             Tx   d 5 32 23 5E 00 10  Length = 172000 BitCount = 89 ID = 353
   1.331698 1  1F9             Tx   d 6 20 1E 1C 2C F8 FF  Length = 192000 BitCount = 99 ID = 505
   1.331727 1  181             Tx   d 8 1C 2C 34 10 32 20 41 4E  Length = 232000 BitCount = 119 ID = 385
   1.332695 1  181             Tx   d 8 1C 20 33 10 32 20 41 4E  Length = 228000 BitCount = 117 ID = 385
   1.338676 1  1A5             Tx   d 8 EF FF 01 00 00 00 00 00  Length = 240000 BitCount = 123 ID = 421
   1.340678 1  284             Tx   d 8 00 00 00 00 00 00 00 00  Length = 246000 BitCount = 126 ID = 644
   1.340715 1  285             Tx   d 8 00 00 00 00 00 00 00 00  Length = 248000 BitCount = 127 ID = 645
   1.341670 1  161             Tx   d 5 32 23 5E 00 10  Length = 172000 BitCount = 89 ID = 353
   1.341699 1  1F9             Tx   d 6 20 1E 1C 32 F8 FF  Length = 194000 BitCount = 100 ID = 505
   1.341708 1  181             Tx   d 8 1C 32 33 10 32 20 41 4E  Length = 228000 BitCount = 117 ID = 385
   1.348650 1  1A5             Tx   d 8 FF FF 01 00 00 00 00 00  Length = 240000 BitCount = 123 ID = 421
   1.349648 1  1A5             Tx   d 8 2E D3 26 4B 3D 8B 6D BD  Length = 218000 BitCount = 112 ID = 421
   1.350655 1  244             Tx   d 7 FE FE 00 00 00 00 FE  Length = 222000 BitCount = 114 ID = 580
   1.351659 1  161             Tx   d 5 32 23 5E 00 10  Length = 172000 BitCount = 89 ID = 353
   1.351693 1  1F9             Tx   d 6 20 1E 1C 32 F8 FF  Length = 194000 BitCount = 100 ID = 505
   1.351703 1  181             Tx   d 8 1C 32 33 10 32 20 41 4E  Length = 228000 BitCount = 117 ID = 385
   1.352578 1  161             Tx   d 5 1A 4B 63 79 B7  Length = 168000 BitCount = 87 ID = 353
   1.358547 1  1A5             Tx   d 8 0F FF 01 00 00 00 00 00  Length = 240000 BitCount = 123 ID = 421
   1.360543 1  284             Tx   d 8 00 00 00 00 00 00 00 00  Length = 246000 BitCount = 126 ID = 644
   1.360557 1  285             Tx   d 8 00 00 00 00 00 00 00 00  Length = 248000 BitCount = 127 ID = 645
   1.361555 1  161             Tx   d 5 32 23 5E 00 10  Length = 172000 BitCount = 89 ID = 353
   1.361573 1  1F9             Tx   d 6 20 1E 1C 32 F8 FF  Length = 194000 BitCount = 100 ID = 505
   1.361579 1  181             Tx   d 8 1C 32 33 10 32 20 41 4E  Length = 228000 BitCount = 117 ID = 385
   1.365508 1  1A5             Tx   d 8 36 02 41 09 C8 3E C9 19  Length = 228000 BitCount = 117 ID = 421
   1.369496 1  1A5             Tx   d 8 1F FF 01 00 00 00 00 00  Length = 240000 BitCount = 123 ID = 421
   1.370497 1  244             Tx   d 7 FE FE 00 00 00 00 FE  Length = 222000 BitCount = 114 ID = 580
   1.370504 1  354             Tx   d 8 00 00 00 00 00 00 00 00  Length = 244000 BitCount = 125 ID = 852
   1.372487 1  161             Tx   d 5 32 23 5E 00 10  Length = 172000 BitCount = 89 ID = 353
   1.372495 1  1F9             Tx   d 6 20 1E 1C 34 F8 FF  Length = 194000 BitCount = 100 ID = 505
   1.372519 1  181             Tx   d 8 1C 34 33 10 32 20 41 4E  Length = 228000 BitCount = 117 ID = 385
   1.378473 1  1A5             Tx   d 8 2F FF 01 00 00 00 00 00  Length = 240000 BitCount = 123 ID = 421
   1.380477 1  284             Tx   d 8 00 00 00 00 00 00 00 00  Length = 246000 BitCount = 126 ID = 644
   1.380506 1  285             Tx   d 8 00 00 00 00 00 00 00 00  Length = 248000 BitCount = 127 ID = 645
   1.381464 1  161             Tx   d 5 32 23 5E 00 10  Length = 172000 BitCount = 89 ID = 353
   1.381472 1  551             Tx   d 8 68 5E 71 88 FF 7A 00 60  Length = 224000 BitCount = 115 ID = 1361
   1.381495 1  1F9             Tx   d 6 20 1E 1C 34 F8 FF  Length = 194000 BitCount = 100 ID = 505
   1.382461 1  181             Tx   d 8 1C 34 33 10 32 20 41 4E  Length = 228000 BitCount = 117 ID = 385
   1.382469 1  511             Tx   d 7 00 00 00 00 00 00 00  Length = 224000 BitCount = 115 ID = 1297
   1.382493 1  5DD             Tx   d 3 4C 00 00  Length = 144000 BitCount = 75 ID = 1501
   1.382495 1  65C             Tx   d 1 78  Length = 108000 BitCount = 57 ID = 1628
   1.388444 1  161             Tx   d 5 3C 11 3E 1E 21  Length = 178000 BitCount = 92 ID = 353
   1.389463 1  1A5             Tx   d 8 3F FF 01 00 00 00 00 00  Length = 242000 BitCount = 124 ID = 421
   1.390494 1  244             Tx   d 7 FE FE 00 00 00 00 FE  Length = 222000 BitCount = 114 ID = 580
   1.391522 1  161             Tx   d 5 32 23 5E 00 10  Length = 172000 BitCount = 89 ID = 353
   1.391530 1  1F9             Tx   d 6 20 1E 1C 34 F8 FF  Length = 194000 BitCount = 100 ID = 505
   1.391553 1  181             Tx   d 8 1C 34 33 10 32 20 41 4E  Length = 228000 BitCount = 117 ID = 385
   1.397853 1  1A5             Tx   d 8 4F FF 01 00 00 00 00 00  Length = 238000 BitCount = 122 ID = 421
   1.398451 1  161             Tx   d 5 55 38 AC CD 5D  Length = 170000 BitCount = 88 ID = 353
   1.400470 1  284             Tx   d 8 00 00 00 00 00 00 00 00  Length = 246000 BitCount = 126 ID = 644
   1.400486 1  285             Tx   d 8 00 00 00 00 00 00 00 00  Length = 248000 BitCount = 127 ID = 645
   1.403849 1  161             Tx   d 5 32 23 5E 00 10  Length = 172000 BitCount = 89 ID = 353
   1.403864 1  1F9             Tx   d 6 20 1E 1C 34 F8 FF  Length = 194000 BitCount = 100 ID = 505
   1.403866 1  181             Tx   d 8 1C 34 33 10 32 20 41 4E  Length = 228000 BitCount = 117 ID = 385
   1.408886 1  1A5             Tx   d 8 5F FF 01 00 00 00 00 00  Length = 240000 BitCount = 123 ID = 421
   1.410418 1  244             Tx   d 7 FE FE 00 00 00 00 FE  Length = 222000 BitCount = 114 ID = 580
   1.410431 1  354             Tx   d 8 00 00 00 00 00 00 00 00  Length = 244000 BitCount = 125 ID = 852
   1.411734 1  161             Tx   d 5 32 23 5E 00 10  Length = 172000 BitCount = 89 ID = 353
   1.411774 1  1F9             Tx   d 6 20 1E 1C 0A F8 FF  Length = 194000 BitCount = 100 ID = 505
   1.411777 1  181             Tx   d 8 1C 0A 33 10 32 20 41 4E  Length = 228000 BitCount = 117 ID = 385
   1.418695 1  1A5             Tx   d 8 6F FF 01 00 00 00 00 00  Length = 238000 BitCount = 122 ID = 421
   1.420797 1  284             Tx   d 8 00 00 00 00 00 00 00 00  Length = 246000 BitCount = 126 ID = 644
   1.420816 1  285             Tx   d 8 00 00 00 00 00 00 00 00  Length = 248000 BitCount = 127 ID = 645
   1.420819 1  161             Tx   d 5 32 23 5E 00 10  Length = 172000 BitCount = 89 ID = 353
   1.421394 1  1F9             Tx   d 6 20 1E 1C 0A F8 FF  Length = 194000 BitCount = 100 ID = 505
   1.421404 1  181             Tx   d 8 1C 0A 33 10 32 20 41 4E  Length = 228000 BitCount = 117 ID = 385
   1.428794 1  161             Tx   d 5 92 30 C6 14 71  Length = 168000 BitCount = 87 ID = 353
   1.428808 1  1A5             Tx   d 8 7F FF 01 00 00 00 00 00  Length = 240000 BitCount = 123 ID = 421
   1.430860 1  244             Tx   d 7 FE FE 00 00 00 00 FE  Length = 222000 BitCount = 114 ID = 580
