date Sat Jan 27 05:02:40.019 pm 2024
base hex  timestamps absolute
internal events logged
// version 11.0.0
   0.000013 CAN 1 Status:chip status error active
   0.000116 1  284             Tx   d 8 00 00 00 00 00 00 00 00  Length = 246000 BitCount = 126 ID = 644
   0.000486 1  285             Tx   d 8 00 00 00 00 00 00 00 00  Length = 248000 BitCount = 127 ID = 645
   0.003600 1  161             Tx   d 5 32 22 5D 00 10  Length = 176000 BitCount = 91 ID = 353
   0.003608 1  1F9             Tx   d 6 20 1E 1C 7E F8 FF  Length = 194000 BitCount = 100 ID = 505
   0.003632 1  181             Tx   d 8 1C 7E 32 10 32 20 42 4E  Length = 228000 BitCount = 117 ID = 385
   0.009546 1  1A5             Tx   d 8 9F FF 01 00 00 00 00 00  Length = 238000 BitCount = 122 ID = 421
   0.010600 1  244             Tx   d 7 FE FE 00 00 00 00 FE  Length = 222000 BitCount = 114 ID = 580
   0.010610 1  354             Tx   d 8 00 00 00 00 00 00 00 00  Length = 244000 BitCount = 125 ID = 852
   0.011633 1  161             Tx   d 5 32 22 5D 00 10  Length = 176000 BitCount = 91 ID = 353
   0.011641 1  1F9             Tx   d 6 20 1E 1C 7E F8 FF  Length = 194000 BitCount = 100 ID = 505
   0.011643 1  181             Tx   d 8 1C 7E 32 10 32 20 42 4E  Length = 228000 BitCount = 117 ID = 385
   0.017607 1  1A5             Tx   d 8 AF FF 01 00 00 00 00 00  Length = 242000 BitCount = 124 ID = 421
   0.020620 1  284             Tx   d 8 00 00 00 00 00 00 00 00  Length = 246000 BitCount = 126 ID = 644
   0.020626 1  285             Tx   d 8 00 00 00 00 00 00 00 00  Length = 248000 BitCount = 127 ID = 645
   0.021630 1  161             Tx   d 5 32 22 5D 00 10  Length = 176000 BitCount = 91 ID = 353
   0.021637 1  1F9             Tx   d 6 20 1E 1C 7E F8 FF  Length = 194000 BitCount = 100 ID = 505
   0.021640 1  181             Tx   d 8 1C 7E 32 10 32 20 42 4E  Length = 228000 BitCount = 117 ID = 385
   0.023616 1  1A5             Tx   d 8 65 48 D1 32 A8 3F 59 4D  Length = 220000 BitCount = 113 ID = 421
   0.028610 1  1A5             Tx   d 8 BF FF 01 00 00 00 00 00  Length = 238000 BitCount = 122 ID = 421
   0.030608 1  244             Tx   d 7 FE FE 00 00 00 00 FE  Length = 222000 BitCount = 114 ID = 580
   0.033602 1  161             Tx   d 5 32 22 5D 00 10  Length = 176000 BitCount = 91 ID = 353
   0.033610 1  1F9             Tx   d 6 20 1E 1C 7E F8 FF  Length = 194000 BitCount = 100 ID = 505
   0.033613 1  181             Tx   d 8 1C 7E 32 10 32 20 42 4E  Length = 228000 BitCount = 117 ID = 385
   0.034595 1  1A5             Tx   d 8 D3 DD 39 6C B7 8A C0 C5  Length = 218000 BitCount = 112 ID = 421
   0.037587 1  1A5             Tx   d 8 CF FF 01 00 00 00 00 00  Length = 242000 BitCount = 124 ID = 421
   0.040665 1  284             Tx   d 8 00 00 00 00 00 00 00 00  Length = 246000 BitCount = 126 ID = 644
   0.040672 1  285             Tx   d 8 00 00 00 00 00 00 00 00  Length = 248000 BitCount = 127 ID = 645
   0.041577 1  161             Tx   d 5 32 22 5D 00 10  Length = 176000 BitCount = 91 ID = 353
   0.041584 1  1F9             Tx   d 6 20 1E 1C 80 F8 FF  Length = 196000 BitCount = 101 ID = 505
   0.041586 1  181             Tx   d 8 1C 80 32 10 32 20 42 4E  Length = 228000 BitCount = 117 ID = 385
   0.043575 1  1A5             Tx   d 8 36 DD 86 A4 83 5B 05 2F  Length = 222000 BitCount = 114 ID = 421
   0.048580 1  1A5             Tx   d 8 DF FF 01 00 00 00 00 00  Length = 238000 BitCount = 122 ID = 421
   0.050542 1  244             Tx   d 7 FE FE 00 00 00 00 FE  Length = 222000 BitCount = 114 ID = 580
   0.050548 1  354             Tx   d 8 00 00 00 00 00 00 00 00  Length = 244000 BitCount = 125 ID = 852
   0.051552 1  161             Tx   d 5 32 22 5D 00 10  Length = 176000 BitCount = 91 ID = 353
   0.051560 1  1F9             Tx   d 6 20 1E 1C 80 F8 FF  Length = 196000 BitCount = 101 ID = 505
   0.051563 1  181             Tx   d 8 1C 80 32 10 32 20 42 4E  Length = 228000 BitCount = 117 ID = 385
   0.053931 1  1A5             Tx   d 8 D7 D9 D8 0D 0F 33 A3 FD  Length = 224000 BitCount = 115 ID = 421
   0.057906 1  1A5             Tx   d 8 EF FF 01 00 00 00 00 00  Length = 240000 BitCount = 123 ID = 421
   0.060049 1  284             Tx   d 8 00 00 00 00 00 00 00 00  Length = 246000 BitCount = 126 ID = 644
   0.062023 1  285             Tx   d 8 00 00 00 00 00 00 00 00  Length = 248000 BitCount = 127 ID = 645
   0.062037 1  161             Tx   d 5 32 22 5D 00 10  Length = 176000 BitCount = 91 ID = 353
   0.062040 1  1F9             Tx   d 6 20 1E 1C 80 F8 FF  Length = 196000 BitCount = 101 ID = 505
   0.062042 1  181             Tx   d 8 1C 80 32 10 32 20 42 4E  Length = 228000 BitCount = 117 ID = 385
   0.064003 1  1A5             Tx   d 8 CA 27 FB 9C A4 F4 77 FA  Length = 220000 BitCount = 113 ID = 421
   0.068961 1  1A5             Tx   d 8 FF FF 01 00 00 00 00 00  Length = 240000 BitCount = 123 ID = 421
   0.070996 1  244             Tx   d 7 FE FE 00 00 00 00 FE  Length = 222000 BitCount = 114 ID = 580
   0.071006 1  161             Tx   d 5 32 22 5D 00 10  Length = 176000 BitCount = 91 ID = 353
   0.071008 1  1F9             Tx   d 6 20 1E 1C 5A F8 FF  Length = 192000 BitCount = 99 ID = 505
   0.072875 1  181             Tx   d 8 1C 5A 32 10 32 20 42 4E  Length = 224000 BitCount = 115 ID = 385
   0.077840 1  1A5             Tx   d 8 0F FF 01 00 00 00 00 00  Length = 240000 BitCount = 123 ID = 421
   0.080864 1  284             Tx   d 8 00 00 00 00 00 00 00 00  Length = 246000 BitCount = 126 ID = 644
   0.080874 1  285             Tx   d 8 00 00 00 00 00 00 00 00  Length = 248000 BitCount = 127 ID = 645
   0.082613 1  161             Tx   d 5 32 22 5D 00 10  Length = 176000 BitCount = 91 ID = 353
   0.082629 1  551             Tx   d 8 68 5B 71 88 FF 7A 00 5D  Length = 222000 BitCount = 114 ID = 1361
   0.082632 1  1F9             Tx   d 6 20 1E 1C 5A F8 FF  Length = 192000 BitCount = 99 ID = 505
   0.082634 1  181             Tx   d 8 1C 5A 32 10 32 20 42 4E  Length = 224000 BitCount = 115 ID = 385
   0.082636 1  511             Tx   d 7 00 00 00 00 00 00 00  Length = 224000 BitCount = 115 ID = 1297
   0.082638 1  5DD             Tx   d 3 4C 00 00  Length = 144000 BitCount = 75 ID = 1501
   0.082640 1  65C             Tx   d 1 78  Length = 108000 BitCount = 57 ID = 1628
   0.083746 1  1A5             Tx   d 8 10 E5 B7 44 88 61 D9 B2  Length = 218000 BitCount = 112 ID = 421
   0.089011 1  1A5             Tx   d 8 1F FF 01 00 00 00 00 00  Length = 240000 BitCount = 123 ID = 421
   0.090414 1  244             Tx   d 7 FE FE 00 00 00 00 FE  Length = 222000 BitCount = 114 ID = 580
   0.090420 1  354             Tx   d 8 00 00 00 00 00 00 00 00  Length = 244000 BitCount = 125 ID = 852
   0.091710 1  161             Tx   d 5 32 22 5D 00 10  Length = 176000 BitCount = 91 ID = 353
   0.091718 1  1F9             Tx   d 6 20 1E 1C 5A F8 FF  Length = 192000 BitCount = 99 ID = 505
   0.091720 1  181             Tx   d 8 1C 5A 32 10 32 20 42 4E  Length = 224000 BitCount = 115 ID = 385
   0.094660 1  1A5             Tx   d 8 AE 58 10 7F 95 07 54 B9  Length = 224000 BitCount = 115 ID = 421
   0.097766 1  1A5             Tx   d 8 2F FF 01 00 00 00 00 00  Length = 240000 BitCount = 123 ID = 421
   0.101397 1  284             Tx   d 8 00 00 00 00 00 00 00 00  Length = 246000 BitCount = 126 ID = 644
   0.101416 1  285             Tx   d 8 00 00 00 00 00 00 00 00  Length = 248000 BitCount = 127 ID = 645
   0.102378 1  161             Tx   d 5 32 22 5D 00 10  Length = 176000 BitCount = 91 ID = 353
   0.102385 1  1F9             Tx   d 6 20 1E 1C 50 F8 FF  Length = 192000 BitCount = 99 ID = 505
   0.102388 1  181             Tx   d 8 1C 50 32 10 32 20 42 4E  Length = 226000 BitCount = 116 ID = 385
   0.108774 1  1A5             Tx   d 8 3F FF 01 00 00 00 00 00  Length = 242000 BitCount = 124 ID = 421
   0.110854 1  244             Tx   d 7 FE FE 00 00 00 00 FE  Length = 222000 BitCount = 114 ID = 580
   0.110874 1  161             Tx   d 5 32 22 5D 00 10  Length = 176000 BitCount = 91 ID = 353
   0.112818 1  1F9             Tx   d 6 20 1E 1C 50 F8 FF  Length = 192000 BitCount = 99 ID = 505
   0.112834 1  181             Tx   d 8 1C 50 32 10 32 20 42 4E  Length = 226000 BitCount = 116 ID = 385
   0.114809 1  1A5             Tx   d 8 B1 6D 1A E0 52 CE B7 C4  Length = 222000 BitCount = 114 ID = 421
   0.117746 1  1A5             Tx   d 8 4F FF 01 00 00 00 00 00  Length = 238000 BitCount = 122 ID = 421
   0.120700 1  284             Tx   d 8 00 00 00 00 00 00 00 00  Length = 246000 BitCount = 126 ID = 644
   0.120711 1  285             Tx   d 8 00 00 00 00 00 00 00 00  Length = 248000 BitCount = 127 ID = 645
   0.122725 1  161             Tx   d 5 32 22 5D 00 10  Length = 176000 BitCount = 91 ID = 353
   0.122743 1  1F9             Tx   d 6 20 1E 1C 50 F8 FF  Length = 192000 BitCount = 99 ID = 505
   0.122746 1  181             Tx   d 8 1C 50 32 10 32 20 42 4E  Length = 226000 BitCount = 116 ID = 385
   0.128350 1  1A5             Tx   d 8 5F FF 01 00 00 00 00 00  Length = 240000 BitCount = 123 ID = 421
   0.130359 1  244             Tx   d 7 FE FE 00 00 00 00 FE  Length = 222000 BitCount = 114 ID = 580
   0.130375 1  354             Tx   d 8 00 00 00 00 00 00 00 00  Length = 244000 BitCount = 125 ID = 852
   0.133330 1  161             Tx   d 5 32 22 5D 00 10  Length = 176000 BitCount = 91 ID = 353
   0.133345 1  1F9             Tx   d 6 20 1E 1C 50 F8 FF  Length = 192000 BitCount = 99 ID = 505
   0.134267 1  181             Tx   d 8 1C 50 32 10 32 20 42 4E  Length = 226000 BitCount = 116 ID = 385
   0.137557 1  1A5             Tx   d 8 6F FF 01 00 00 00 00 00  Length = 238000 BitCount = 122 ID = 421
   0.141549 1  284             Tx   d 8 00 00 00 00 00 00 00 00  Length = 246000 BitCount = 126 ID = 644
   0.141558 1  285             Tx   d 8 00 00 00 00 00 00 00 00  Length = 248000 BitCount = 127 ID = 645
   0.141561 1  161             Tx   d 5 32 22 5D 00 10  Length = 176000 BitCount = 91 ID = 353
   0.141563 1  1F9             Tx   d 6 20 1E 1C 3C F8 FF  Length = 194000 BitCount = 100 ID = 505
   0.141565 1  181             Tx   d 8 1C 3C 32 10 32 20 42 4E  Length = 224000 BitCount = 115 ID = 385
   0.148732 1  1A5             Tx   d 8 7F FF 01 00 00 00 00 00  Length = 240000 BitCount = 123 ID = 421
   0.150534 1  244             Tx   d 7 FE FE 00 00 00 00 FE  Length = 222000 BitCount = 114 ID = 580
   0.151585 1  161             Tx   d 5 32 22 5D 00 10  Length = 176000 BitCount = 91 ID = 353
   0.152588 1  1F9             Tx   d 6 20 1E 1C 3C F8 FF  Length = 194000 BitCount = 100 ID = 505
   0.152604 1  181             Tx   d 8 1C 3C 32 10 32 20 42 4E  Length = 224000 BitCount = 115 ID = 385
   0.157565 1  1A5             Tx   d 8 8F FF 01 00 00 00 00 00  Length = 238000 BitCount = 122 ID = 421
   0.160577 1  284             Tx   d 8 00 00 00 00 00 00 00 00  Length = 246000 BitCount = 126 ID = 644
   0.160588 1  285             Tx   d 8 00 00 00 00 00 00 00 00  Length = 248000 BitCount = 127 ID = 645
   0.162572 1  161             Tx   d 5 32 22 5D 00 10  Length = 176000 BitCount = 91 ID = 353
   0.162590 1  1F9             Tx   d 6 20 1E 1C 3C F8 FF  Length = 194000 BitCount = 100 ID = 505
   0.162593 1  181             Tx   d 8 1C 3C 32 10 32 20 42 4E  Length = 224000 BitCount = 115 ID = 385
   0.168572 1  1A5             Tx   d 8 9F FF 01 00 00 00 00 00  Length = 238000 BitCount = 122 ID = 421
   0.170595 1  244             Tx   d 7 FE FE 00 00 00 00 FE  Length = 222000 BitCount = 114 ID = 580
   0.170609 1  354             Tx   d 8 00 00 00 00 00 00 00 00  Length = 244000 BitCount = 125 ID = 852
   0.172557 1  161             Tx   d 5 32 22 5D 00 10  Length = 176000 BitCount = 91 ID = 353
   0.172578 1  1F9             Tx   d 6 20 1E 1C 3C F8 FF  Length = 194000 BitCount = 100 ID = 505
   0.172584 1  181             Tx   d 8 1C 3C 33 10 32 20 42 4E  Length = 224000 BitCount = 115 ID = 385
   0.174543 1  1A5             Tx   d 8 BA AA 89 2C 16 01 A2 5E  Length = 220000 BitCount = 113 ID = 421
   0.177520 1  1A5             Tx   d 8 AF FF 01 00 00 00 00 00  Length = 242000 BitCount = 124 ID = 421
   0.180513 1  284             Tx   d 8 00 00 00 00 00 00 00 00  Length = 246000 BitCount = 126 ID = 644
   0.180544 1  285             Tx   d 8 00 00 00 00 00 00 00 00  Length = 248000 BitCount = 127 ID = 645
   0.181198 1  161             Tx   d 5 32 22 5D 00 10  Length = 176000 BitCount = 91 ID = 353
   0.181217 1  551             Tx   d 8 68 5B 71 88 FF 7A 00 5D  Length = 222000 BitCount = 114 ID = 1361
   0.182370 1  1F9             Tx   d 6 20 1E 1C 3C F8 FF  Length = 194000 BitCount = 100 ID = 505
   0.182397 1  181             Tx   d 8 1C 3C 33 10 32 20 42 4E  Length = 224000 BitCount = 115 ID = 385
   0.182403 1  511             Tx   d 7 00 00 00 00 00 00 00  Length = 224000 BitCount = 115 ID = 1297
   0.182409 1  5DD             Tx   d 3 4C 00 00  Length = 144000 BitCount = 75 ID = 1501
   0.182414 1  65C             Tx   d 1 78  Length = 108000 BitCount = 57 ID = 1628
   0.188472 1  1A5             Tx   d 8 BF FF 01 00 00 00 00 00  Length = 238000 BitCount = 122 ID = 421
   0.190495 1  244             Tx   d 7 FE FE 00 00 00 00 FE  Length = 222000 BitCount = 114 ID = 580
   0.191185 1  161             Tx   d 5 32 22 5D 00 10  Length = 176000 BitCount = 91 ID = 353
   0.191209 1  1F9             Tx   d 6 20 1E 1C 3C F8 FF  Length = 194000 BitCount = 100 ID = 505
   0.192394 1  181             Tx   d 8 1C 3C 33 10 32 20 42 4E  Length = 224000 BitCount = 115 ID = 385
   0.194491 1  1A5             Tx   d 8 27 E3 91 BC 9E A5 29 33  Length = 220000 BitCount = 113 ID = 421
   0.198251 1  1A5             Tx   d 8 CF FF 01 00 00 00 00 00  Length = 242000 BitCount = 124 ID = 421
   0.200498 1  284             Tx   d 8 00 00 00 00 00 00 00 00  Length = 246000 BitCount = 126 ID = 644
   0.200533 1  285             Tx   d 8 00 00 00 00 00 00 00 00  Length = 248000 BitCount = 127 ID = 645
   0.202421 1  161             Tx   d 5 32 22 5D 00 10  Length = 176000 BitCount = 91 ID = 353
   0.202467 1  1F9             Tx   d 6 20 1E 1C 38 F8 FF  Length = 194000 BitCount = 100 ID = 505
   0.202479 1  181             Tx   d 8 1C 38 33 10 32 20 42 4E  Length = 226000 BitCount = 116 ID = 385
   0.208421 1  1A5             Tx   d 8 DF FF 01 00 00 00 00 00  Length = 238000 BitCount = 122 ID = 421
   0.210458 1  244             Tx   d 7 FE FE 00 00 00 00 FE  Length = 222000 BitCount = 114 ID = 580
   0.210518 1  354             Tx   d 8 00 00 00 00 00 00 00 00  Length = 244000 BitCount = 125 ID = 852
   0.211227 1  161             Tx   d 5 32 21 5D 00 10  Length = 174000 BitCount = 90 ID = 353
   0.211262 1  1F9             Tx   d 6 20 1E 1C 38 F8 FF  Length = 194000 BitCount = 100 ID = 505
   0.211274 1  181             Tx   d 8 1C 38 33 10 32 20 43 4E  Length = 228000 BitCount = 117 ID = 385
   0.218398 1  1A5             Tx   d 8 EF FF 01 00 00 00 00 00  Length = 240000 BitCount = 123 ID = 421
   0.220418 1  284             Tx   d 8 00 00 00 00 00 00 00 00  Length = 246000 BitCount = 126 ID = 644
   0.220453 1  285             Tx   d 8 00 00 00 00 00 00 00 00  Length = 248000 BitCount = 127 ID = 645
   0.221189 1  161             Tx   d 5 32 21 5D 00 10  Length = 174000 BitCount = 90 ID = 353
   0.221225 1  1F9             Tx   d 6 20 1E 1C 38 F8 FF  Length = 194000 BitCount = 100 ID = 505
   0.221236 1  181             Tx   d 8 1C 38 33 10 32 20 43 4E  Length = 228000 BitCount = 117 ID = 385
   0.229150 1  1A5             Tx   d 8 FF FF 01 00 00 00 00 00  Length = 240000 BitCount = 123 ID = 421
   0.230111 1  244             Tx   d 7 FE FE 00 00 00 00 FE  Length = 222000 BitCount = 114 ID = 580
   0.233173 1  161             Tx   d 5 32 21 5D 00 10  Length = 174000 BitCount = 90 ID = 353
   0.233211 1  1F9             Tx   d 6 20 1E 1C 38 F8 FF  Length = 194000 BitCount = 100 ID = 505
   0.234157 1  181             Tx   d 8 1C 38 32 10 32 20 43 4E  Length = 226000 BitCount = 116 ID = 385
   0.238129 1  1A5             Tx   d 8 0F FF 01 00 00 00 00 00  Length = 240000 BitCount = 123 ID = 421
   0.240158 1  284             Tx   d 8 00 00 00 00 00 00 00 00  Length = 246000 BitCount = 126 ID = 644
   0.241140 1  285             Tx   d 8 00 00 00 00 00 00 00 00  Length = 248000 BitCount = 127 ID = 645
   0.241178 1  161             Tx   d 5 32 21 5D 00 10  Length = 174000 BitCount = 90 ID = 353
   0.242124 1  1F9             Tx   d 6 20 1E 1C 44 F8 FF  Length = 194000 BitCount = 100 ID = 505
   0.242160 1  181             Tx   d 8 1C 44 32 10 32 20 43 4E  Length = 226000 BitCount = 116 ID = 385
   0.244133 1  1A5             Tx   d 8 0B 7B BB 80 5D 3F 4B EF  Length = 226000 BitCount = 116 ID = 421
   0.249064 1  1A5             Tx   d 8 1F FF 01 00 00 00 00 00  Length = 240000 BitCount = 123 ID = 421
   0.250084 1  244             Tx   d 7 FE FE 00 00 00 00 FE  Length = 222000 BitCount = 114 ID = 580
   0.251070 1  354             Tx   d 8 00 00 00 00 00 00 00 00  Length = 244000 BitCount = 125 ID = 852
   0.252038 1  161             Tx   d 5 32 21 5D 00 10  Length = 174000 BitCount = 90 ID = 353
   0.252057 1  1F9             Tx   d 6 20 1E 1C 44 F8 FF  Length = 194000 BitCount = 100 ID = 505
   0.252064 1  181             Tx   d 8 1C 44 32 10 32 20 43 4E  Length = 226000 BitCount = 116 ID = 385
   0.255027 1  1A5             Tx   d 8 E1 6A F1 E2 F8 09 33 42  Length = 220000 BitCount = 113 ID = 421
   0.258005 1  1A5             Tx   d 8 2F FF 01 00 00 00 00 00  Length = 240000 BitCount = 123 ID = 421
   0.260998 1  284             Tx   d 8 00 00 00 00 00 00 00 00  Length = 246000 BitCount = 126 ID = 644
   0.261019 1  285             Tx   d 8 00 00 00 00 00 00 00 00  Length = 248000 BitCount = 127 ID = 645
   0.261024 1  161             Tx   d 5 32 22 5D 00 10  Length = 176000 BitCount = 91 ID = 353
   0.261028 1  1F9             Tx   d 6 20 1E 1C 44 F8 FF  Length = 194000 BitCount = 100 ID = 505
   0.261990 1  181             Tx   d 8 1C 44 32 10 32 20 42 4E  Length = 224000 BitCount = 115 ID = 385
   0.268323 1  1A5             Tx   d 8 3F FF 01 00 00 00 00 00  Length = 242000 BitCount = 124 ID = 421
   0.270347 1  244             Tx   d 7 FE FE 00 00 00 00 FE  Length = 222000 BitCount = 114 ID = 580
   0.270952 1  161             Tx   d 5 32 22 5D 00 10  Length = 176000 BitCount = 91 ID = 353
   0.272312 1  1F9             Tx   d 6 20 1E 1C 32 F8 FF  Length = 194000 BitCount = 100 ID = 505
   0.272328 1  181             Tx   d 8 1C 32 33 10 32 20 42 4E  Length = 224000 BitCount = 115 ID = 385
   0.278267 1  1A5             Tx   d 8 4F FF 01 00 00 00 00 00  Length = 238000 BitCount = 122 ID = 421
   0.280285 1  284             Tx   d 8 00 00 00 00 00 00 00 00  Length = 246000 BitCount = 126 ID = 644
   0.281228 1  285             Tx   d 8 00 00 00 00 00 00 00 00  Length = 248000 BitCount = 127 ID = 645
   0.281244 1  161             Tx   d 5 32 21 5D 00 10  Length = 174000 BitCount = 90 ID = 353
   0.281248 1  551             Tx   d 8 68 5C 71 88 FF 7A 00 5E  Length = 224000 BitCount = 115 ID = 1361
   0.282203 1  1F9             Tx   d 6 20 1E 1C 32 F8 FF  Length = 194000 BitCount = 100 ID = 505
   0.282220 1  181             Tx   d 8 1C 32 33 10 32 20 43 4E  Length = 224000 BitCount = 115 ID = 385
   0.282223 1  511             Tx   d 7 00 00 00 00 00 00 00  Length = 224000 BitCount = 115 ID = 1297
   0.282226 1  5DD             Tx   d 3 4C 00 00  Length = 144000 BitCount = 75 ID = 1501
   0.282229 1  65C             Tx   d 1 78  Length = 108000 BitCount = 57 ID = 1628
   0.289234 1  1A5             Tx   d 8 5F FF 01 00 00 00 00 00  Length = 240000 BitCount = 123 ID = 421
   0.290186 1  244             Tx   d 7 FE FE 00 00 00 00 FE  Length = 222000 BitCount = 114 ID = 580
   0.291211 1  354             Tx   d 8 00 00 00 00 00 00 00 00  Length = 244000 BitCount = 125 ID = 852
   0.291228 1  161             Tx   d 5 32 21 5D 00 10  Length = 174000 BitCount = 90 ID = 353
   0.291231 1  1F9             Tx   d 6 20 1E 1C 32 F8 FF  Length = 194000 BitCount = 100 ID = 505
   0.291234 1  181             Tx   d 8 1C 32 33 10 32 20 43 4E  Length = 224000 BitCount = 115 ID = 385
   0.295231 1  1A5             Tx   d 8 DD D4 E2 B6 00 81 0F 96  Length = 224000 BitCount = 115 ID = 421
   0.298227 1  1A5             Tx   d 8 6F FF 01 00 00 00 00 00  Length = 238000 BitCount = 122 ID = 421
   0.300268 1  284             Tx   d 8 00 00 00 00 00 00 00 00  Length = 246000 BitCount = 126 ID = 644
   0.300861 1  285             Tx   d 8 00 00 00 00 00 00 00 00  Length = 248000 BitCount = 127 ID = 645
   0.302227 1  161             Tx   d 5 32 21 5D 00 10  Length = 174000 BitCount = 90 ID = 353
   0.302244 1  1F9             Tx   d 6 20 1E 1C 2C F8 FF  Length = 192000 BitCount = 99 ID = 505
   0.302247 1  181             Tx   d 8 1C 2C 33 10 32 20 43 4E  Length = 226000 BitCount = 116 ID = 385
   0.304249 1  1A5             Tx   d 8 B8 69 38 23 C6 1C D7 69  Length = 218000 BitCount = 112 ID = 421
   0.309183 1  1A5             Tx   d 8 7F FF 01 00 00 00 00 00  Length = 240000 BitCount = 123 ID = 421
   0.310081 1  244             Tx   d 7 FE FE 00 00 00 00 FE  Length = 222000 BitCount = 114 ID = 580
   0.311114 1  161             Tx   d 5 32 21 5D 00 10  Length = 174000 BitCount = 90 ID = 353
   0.311132 1  1F9             Tx   d 6 20 1E 1C 2C F8 FF  Length = 192000 BitCount = 99 ID = 505
   0.312124 1  181             Tx   d 8 1C 2C 33 10 32 20 43 4E  Length = 226000 BitCount = 116 ID = 385
   0.315156 1  1A5             Tx   d 8 DC 46 DC 72 91 FB A1 6F  Length = 222000 BitCount = 114 ID = 421
   0.318126 1  1A5             Tx   d 8 8F FF 01 00 00 00 00 00  Length = 238000 BitCount = 122 ID = 421
   0.320188 1  284             Tx   d 8 00 00 00 00 00 00 00 00  Length = 246000 BitCount = 126 ID = 644
   0.320807 1  285             Tx   d 8 00 00 00 00 00 00 00 00  Length = 248000 BitCount = 127 ID = 645
   0.322128 1  161             Tx   d 5 32 21 5D 00 10  Length = 174000 BitCount = 90 ID = 353
   0.322151 1  1F9             Tx   d 6 20 1E 1C 2C F8 FF  Length = 192000 BitCount = 99 ID = 505
   0.322156 1  181             Tx   d 8 1C 2C 33 10 32 20 43 4E  Length = 226000 BitCount = 116 ID = 385
   0.323849 1  1A5             Tx   d 8 96 0E 4B 13 C9 AB 16 CA  Length = 218000 BitCount = 112 ID = 421
   0.328796 1  1A5             Tx   d 8 9F FF 01 00 00 00 00 00  Length = 238000 BitCount = 122 ID = 421
   0.330825 1  244             Tx   d 7 FE FE 00 00 00 00 FE  Length = 222000 BitCount = 114 ID = 580
   0.330849 1  354             Tx   d 8 00 00 00 00 00 00 00 00  Length = 244000 BitCount = 125 ID = 852
   0.332831 1  161             Tx   d 5 32 21 5D 00 10  Length = 174000 BitCount = 90 ID = 353
   0.333812 1  1F9             Tx   d 6 20 1E 1C 2C F8 FF  Length = 192000 BitCount = 99 ID = 505
   0.333830 1  181             Tx   d 8 1C 2C 33 10 32 20 43 4E  Length = 226000 BitCount = 116 ID = 385
   0.337776 1  1A5             Tx   d 8 AF FF 01 00 00 00 00 00  Length = 242000 BitCount = 124 ID = 421
   0.340765 1  284             Tx   d 8 00 00 00 00 00 00 00 00  Length = 246000 BitCount = 126 ID = 644
   0.340772 1  285             Tx   d 8 00 00 00 00 00 00 00 00  Length = 248000 BitCount = 127 ID = 645
   0.341737 1  161             Tx   d 5 32 22 5D 00 10  Length = 176000 BitCount = 91 ID = 353
   0.341745 1  1F9             Tx   d 6 20 1E 1C 48 F8 FF  Length = 194000 BitCount = 100 ID = 505
   0.341768 1  181             Tx   d 8 1C 48 33 10 32 20 42 4E  Length = 228000 BitCount = 117 ID = 385
   0.349066 1  1A5             Tx   d 8 BF FF 01 00 00 00 00 00  Length = 238000 BitCount = 122 ID = 421
   0.350716 1  244             Tx   d 7 FE FE 00 00 00 00 FE  Length = 222000 BitCount = 114 ID = 580
   0.351729 1  161             Tx   d 5 32 21 5D 00 10  Length = 174000 BitCount = 90 ID = 353
   0.351737 1  1F9             Tx   d 6 20 1E 1C 48 F8 FF  Length = 194000 BitCount = 100 ID = 505
   0.352708 1  181             Tx   d 8 1C 48 33 10 32 20 43 4E  Length = 226000 BitCount = 116 ID = 385
   0.354086 1  1A5             Tx   d 8 09 6F A6 F0 47 2A 44 51  Length = 222000 BitCount = 114 ID = 421
   0.358005 1  1A5             Tx   d 8 CF FF 01 00 00 00 00 00  Length = 242000 BitCount = 124 ID = 421
   0.360982 1  284             Tx   d 8 00 00 00 00 00 00 00 00  Length = 246000 BitCount = 126 ID = 644
   0.361028 1  285             Tx   d 8 00 00 00 00 00 00 00 00  Length = 248000 BitCount = 127 ID = 645
   0.361040 1  161             Tx   d 5 32 22 5D 00 10  Length = 176000 BitCount = 91 ID = 353
   0.361783 1  1F9             Tx   d 6 20 1E 1C 48 F8 FF  Length = 194000 BitCount = 100 ID = 505
   0.361817 1  181             Tx   d 8 1C 48 33 10 32 20 42 4E  Length = 228000 BitCount = 117 ID = 385
   0.364020 1  1A5             Tx   d 8 87 35 22 90 5A 0A E6 BA  Length = 220000 BitCount = 113 ID = 421
   0.368972 1  1A5             Tx   d 8 DF FF 01 00 00 00 00 00  Length = 238000 BitCount = 122 ID = 421
   0.371036 1  244             Tx   d 7 FE FE 00 00 00 00 FE  Length = 222000 BitCount = 114 ID = 580
   0.371084 1  354             Tx   d 8 00 00 00 00 00 00 00 00  Length = 244000 BitCount = 125 ID = 852
   0.371096 1  161             Tx   d 5 32 22 5D 00 10  Length = 176000 BitCount = 91 ID = 353
   0.371106 1  1F9             Tx   d 6 20 1E 1C 60 F8 FF  Length = 194000 BitCount = 100 ID = 505
   0.371785 1  181             Tx   d 8 1C 60 33 10 32 20 42 4E  Length = 226000 BitCount = 116 ID = 385
   0.377963 1  1A5             Tx   d 8 EF FF 01 00 00 00 00 00  Length = 240000 BitCount = 123 ID = 421
   0.381000 1  284             Tx   d 8 00 00 00 00 00 00 00 00  Length = 246000 BitCount = 126 ID = 644
   0.381034 1  285             Tx   d 8 00 00 00 00 00 00 00 00  Length = 248000 BitCount = 127 ID = 645
   0.381045 1  161             Tx   d 5 32 22 5D 00 10  Length = 176000 BitCount = 91 ID = 353
   0.381765 1  551             Tx   d 8 68 5C 71 88 FF 7A 00 5E  Length = 224000 BitCount = 115 ID = 1361
   0.381804 1  1F9             Tx   d 6 20 1E 1C 60 F8 FF  Length = 194000 BitCount = 100 ID = 505
   0.381816 1  181             Tx   d 8 1C 60 33 10 32 20 42 4E  Length = 226000 BitCount = 116 ID = 385
   0.381826 1  511             Tx   d 7 00 00 00 00 00 00 00  Length = 224000 BitCount = 115 ID = 1297
   0.382759 1  5DD             Tx   d 3 4C 00 00  Length = 144000 BitCount = 75 ID = 1501
   0.382795 1  65C             Tx   d 1 78  Length = 108000 BitCount = 57 ID = 1628
   0.383736 1  1A5             Tx   d 8 19 15 95 D3 DF CD 1C 46  Length = 224000 BitCount = 115 ID = 421
   0.388834 1  1A5             Tx   d 8 FF FF 01 00 00 00 00 00  Length = 240000 BitCount = 123 ID = 421
   0.390941 1  244             Tx   d 7 FE FE 00 00 00 00 FE  Length = 222000 BitCount = 114 ID = 580
   0.391001 1  161             Tx   d 5 32 22 5D 00 10  Length = 176000 BitCount = 91 ID = 353
   0.391726 1  1F9             Tx   d 6 20 1E 1C 60 F8 FF  Length = 194000 BitCount = 100 ID = 505
   0.391762 1  181             Tx   d 8 1C 60 33 10 32 20 42 4E  Length = 226000 BitCount = 116 ID = 385
   0.393934 1  1A5             Tx   d 8 7A D0 AF 07 0D C7 CF 09  Length = 220000 BitCount = 113 ID = 421
   0.397897 1  1A5             Tx   d 8 0F FF 01 00 00 00 00 00  Length = 240000 BitCount = 123 ID = 421
   0.400734 1  284             Tx   d 8 00 00 00 00 00 00 00 00  Length = 246000 BitCount = 126 ID = 644
   0.400767 1  285             Tx   d 8 00 00 00 00 00 00 00 00  Length = 248000 BitCount = 127 ID = 645
   0.401699 1  161             Tx   d 5 32 22 5D 00 10  Length = 176000 BitCount = 91 ID = 353
   0.401735 1  1F9             Tx   d 6 20 1E 1C 4C F8 FF  Length = 194000 BitCount = 100 ID = 505
   0.401747 1  181             Tx   d 8 1C 4C 32 10 32 20 42 4E  Length = 224000 BitCount = 115 ID = 385
   0.403917 1  1A5             Tx   d 8 FE D0 F1 7D A2 BE 7C AB  Length = 224000 BitCount = 115 ID = 421
   0.408883 1  1A5             Tx   d 8 1F FF 01 00 00 00 00 00  Length = 240000 BitCount = 123 ID = 421
   0.410909 1  244             Tx   d 7 FE FE 00 00 00 00 FE  Length = 222000 BitCount = 114 ID = 580
   0.410942 1  354             Tx   d 8 00 00 00 00 00 00 00 00  Length = 244000 BitCount = 125 ID = 852
   0.410954 1  161             Tx   d 5 32 21 5D 00 10  Length = 174000 BitCount = 90 ID = 353
   0.411682 1  1F9             Tx   d 6 20 1E 1C 4C F8 FF  Length = 194000 BitCount = 100 ID = 505
   0.411718 1  181             Tx   d 8 1C 4C 32 10 32 20 43 4E  Length = 224000 BitCount = 115 ID = 385
   0.417882 1  1A5             Tx   d 8 2F FF 01 00 00 00 00 00  Length = 240000 BitCount = 123 ID = 421
   0.420763 1  284             Tx   d 8 00 00 00 00 00 00 00 00  Length = 246000 BitCount = 126 ID = 644
   0.420823 1  285             Tx   d 8 00 00 00 00 00 00 00 00  Length = 248000 BitCount = 127 ID = 645
   0.420835 1  161             Tx   d 5 32 21 5D 00 10  Length = 174000 BitCount = 90 ID = 353
   0.421644 1  1F9             Tx   d 6 20 1E 1C 4C F8 FF  Length = 194000 BitCount = 100 ID = 505
   0.421679 1  181             Tx   d 8 1C 4C 32 10 32 20 43 4E  Length = 224000 BitCount = 115 ID = 385
   0.428823 1  1A5             Tx   d 8 3F FF 01 00 00 00 00 00  Length = 242000 BitCount = 124 ID = 421
   0.430823 1  244             Tx   d 7 FE FE 00 00 00 00 FE  Length = 222000 BitCount = 114 ID = 580
   0.433894 1  161             Tx   d 5 32 21 5C 00 10  Length = 172000 BitCount = 89 ID = 353
   0.433941 1  1F9             Tx   d 6 20 1E 1C 44 F8 FF  Length = 194000 BitCount = 100 ID = 505
   0.433954 1  181             Tx   d 8 1C 44 32 10 32 20 43 4E  Length = 226000 BitCount = 116 ID = 385
   0.437806 1  1A5             Tx   d 8 4F FF 01 00 00 00 00 00  Length = 238000 BitCount = 122 ID = 421
   0.440828 1  284             Tx   d 8 00 00 00 00 00 00 00 00  Length = 246000 BitCount = 126 ID = 644
   0.440862 1  285             Tx   d 8 00 00 00 00 00 00 00 00  Length = 248000 BitCount = 127 ID = 645
   0.442784 1  161             Tx   d 5 32 21 5C 00 10  Length = 172000 BitCount = 89 ID = 353
   0.442831 1  1F9             Tx   d 6 20 1E 1C 44 F8 FF  Length = 194000 BitCount = 100 ID = 505
   0.442843 1  181             Tx   d 8 1C 44 32 10 32 20 43 4E  Length = 226000 BitCount = 116 ID = 385
   0.448778 1  1A5             Tx   d 8 5F FF 01 00 00 00 00 00  Length = 240000 BitCount = 123 ID = 421
   0.450591 1  244             Tx   d 7 FE FE 00 00 00 00 FE  Length = 222000 BitCount = 114 ID = 580
   0.450641 1  354             Tx   d 8 00 00 00 00 00 00 00 00  Length = 244000 BitCount = 125 ID = 852
   0.451522 1  161             Tx   d 5 32 21 5C 00 10  Length = 172000 BitCount = 89 ID = 353
   0.451559 1  1F9             Tx   d 6 20 1E 1C 44 F8 FF  Length = 194000 BitCount = 100 ID = 505
   0.452555 1  181             Tx   d 8 1C 44 32 10 32 20 43 4E  Length = 226000 BitCount = 116 ID = 385
   0.457752 1  1A5             Tx   d 8 6F FF 01 00 00 00 00 00  Length = 238000 BitCount = 122 ID = 421
   0.460774 1  284             Tx   d 8 00 00 00 00 00 00 00 00  Length = 246000 BitCount = 126 ID = 644
   0.460807 1  285             Tx   d 8 00 00 00 00 00 00 00 00  Length = 248000 BitCount = 127 ID = 645
   0.460819 1  161             Tx   d 5 32 21 5C 00 10  Length = 172000 BitCount = 89 ID = 353
   0.462740 1  1F9             Tx   d 6 20 1E 1C 44 F8 FF  Length = 194000 BitCount = 100 ID = 505
   0.462786 1  181             Tx   d 8 1C 44 32 10 32 20 43 4E  Length = 226000 BitCount = 116 ID = 385
   0.468726 1  1A5             Tx   d 8 7F FF 01 00 00 00 00 00  Length = 240000 BitCount = 123 ID = 421
   0.470732 1  244             Tx   d 7 FE FE 00 00 00 00 FE  Length = 222000 BitCount = 114 ID = 580
   0.472714 1  161             Tx   d 5 32 21 5C 00 10  Length = 172000 BitCount = 89 ID = 353
   0.472759 1  1F9             Tx   d 6 20 1E 1C 3A F8 FF  Length = 192000 BitCount = 99 ID = 505
   0.472771 1  181             Tx   d 8 1C 3A 32 10 32 20 43 4E  Length = 224000 BitCount = 115 ID = 385
   0.478498 1  1A5             Tx   d 8 8F FF 01 00 00 00 00 00  Length = 238000 BitCount = 122 ID = 421
   0.480483 1  284             Tx   d 8 00 00 00 00 00 00 00 00  Length = 246000 BitCount = 126 ID = 644
   0.480516 1  285             Tx   d 8 00 00 00 00 00 00 00 00  Length = 248000 BitCount = 127 ID = 645
   0.481479 1  161             Tx   d 5 32 21 5C 00 10  Length = 172000 BitCount = 89 ID = 353
   0.481518 1  551             Tx   d 8 68 5C 71 88 FF 7A 00 5E  Length = 224000 BitCount = 115 ID = 1361
   0.482462 1  1F9             Tx   d 6 20 1E 1C 3A F8 FF  Length = 192000 BitCount = 99 ID = 505
   0.482502 1  181             Tx   d 8 1C 3A 32 10 32 20 43 4E  Length = 224000 BitCount = 115 ID = 385
   0.482515 1  511             Tx   d 7 00 00 00 00 00 00 00  Length = 224000 BitCount = 115 ID = 1297
   0.482526 1  5DD             Tx   d 3 4C 00 00  Length = 144000 BitCount = 75 ID = 1501
   0.482538 1  65C             Tx   d 1 78  Length = 108000 BitCount = 57 ID = 1628
   0.488454 1  1A5             Tx   d 8 9F FF 01 00 00 00 00 00  Length = 238000 BitCount = 122 ID = 421
   0.490454 1  244             Tx   d 7 FE FE 00 00 00 00 FE  Length = 222000 BitCount = 114 ID = 580
   0.490500 1  354             Tx   d 8 00 00 00 00 00 00 00 00  Length = 244000 BitCount = 125 ID = 852
   0.491448 1  161             Tx   d 5 32 23 5C 00 10  Length = 172000 BitCount = 89 ID = 353
   0.491483 1  1F9             Tx   d 6 20 1E 1C 3A F8 FF  Length = 192000 BitCount = 99 ID = 505
   0.491495 1  181             Tx   d 8 1C 3A 32 10 32 20 41 4E  Length = 226000 BitCount = 116 ID = 385
   0.498387 1  1A5             Tx   d 8 AF FF 01 00 00 00 00 00  Length = 242000 BitCount = 124 ID = 421
   0.500386 1  284             Tx   d 8 00 00 00 00 00 00 00 00  Length = 246000 BitCount = 126 ID = 644
   0.500409 1  285             Tx   d 8 00 00 00 00 00 00 00 00  Length = 248000 BitCount = 127 ID = 645
   0.501385 1  161             Tx   d 5 32 23 5C 00 10  Length = 172000 BitCount = 89 ID = 353
   0.501405 1  1F9             Tx   d 6 20 1E 1C 50 F8 FF  Length = 192000 BitCount = 99 ID = 505
   0.501411 1  181             Tx   d 8 1C 50 34 10 32 20 41 4E  Length = 232000 BitCount = 119 ID = 385
   0.504357 1  1A5             Tx   d 8 A5 89 F7 14 C6 90 9D 79  Length = 218000 BitCount = 112 ID = 421
   0.508632 1  1A5             Tx   d 8 BF FF 01 00 00 00 00 00  Length = 238000 BitCount = 122 ID = 421
   0.510696 1  244             Tx   d 7 FE FE 00 00 00 00 FE  Length = 222000 BitCount = 114 ID = 580
   0.512705 1  161             Tx   d 5 32 23 5E 00 10  Length = 172000 BitCount = 89 ID = 353
   0.512723 1  1F9             Tx   d 6 20 1E 1C 50 F8 FF  Length = 192000 BitCount = 99 ID = 505
   0.512727 1  181             Tx   d 8 1C 50 34 10 32 20 41 4E  Length = 232000 BitCount = 119 ID = 385
   0.518651 1  1A5             Tx   d 8 CF FF 01 00 00 00 00 00  Length = 242000 BitCount = 124 ID = 421
   0.520662 1  284             Tx   d 8 00 00 00 00 00 00 00 00  Length = 246000 BitCount = 126 ID = 644
   0.520686 1  285             Tx   d 8 00 00 00 00 00 00 00 00  Length = 248000 BitCount = 127 ID = 645
   0.522655 1  161             Tx   d 5 32 23 5E 00 10  Length = 172000 BitCount = 89 ID = 353
   0.522690 1  1F9             Tx   d 6 20 1E 1C 50 F8 FF  Length = 192000 BitCount = 99 ID = 505
   0.522694 1  181             Tx   d 8 1C 50 34 10 32 20 41 4E  Length = 232000 BitCount = 119 ID = 385
   0.529292 1  1A5             Tx   d 8 DF FF 01 00 00 00 00 00  Length = 238000 BitCount = 122 ID = 421
   0.530248 1  244             Tx   d 7 FE FE 00 00 00 00 FE  Length = 222000 BitCount = 114 ID = 580
   0.531223 1  354             Tx   d 8 00 00 00 00 00 00 00 00  Length = 244000 BitCount = 125 ID = 852
   0.533193 1  161             Tx   d 5 32 23 5E 00 10  Length = 172000 BitCount = 89 ID = 353
   0.533201 1  1F9             Tx   d 6 20 1E 1C 6A F8 FF  Length = 194000 BitCount = 100 ID = 505
   0.533203 1  181             Tx   d 8 1C 6A 32 10 32 20 41 4E  Length = 226000 BitCount = 116 ID = 385
   0.538200 1  1A5             Tx   d 8 EF FF 01 00 00 00 00 00  Length = 240000 BitCount = 123 ID = 421
   0.540213 1  284             Tx   d 8 00 00 00 00 00 00 00 00  Length = 246000 BitCount = 126 ID = 644
   0.541312 1  285             Tx   d 8 00 00 00 00 00 00 00 00  Length = 248000 BitCount = 127 ID = 645
   0.541320 1  161             Tx   d 5 32 23 5E 00 10  Length = 172000 BitCount = 89 ID = 353
   0.541323 1  1F9             Tx   d 6 20 1E 1C 6A F8 FF  Length = 194000 BitCount = 100 ID = 505
   0.541325 1  181             Tx   d 8 1C 6A 32 10 32 20 41 4E  Length = 226000 BitCount = 116 ID = 385
   0.549238 1  1A5             Tx   d 8 FF FF 01 00 00 00 00 00  Length = 240000 BitCount = 123 ID = 421
   0.550268 1  244             Tx   d 7 FE FE 00 00 00 00 FE  Length = 222000 BitCount = 114 ID = 580
   0.551235 1  161             Tx   d 5 32 23 5E 00 10  Length = 172000 BitCount = 89 ID = 353
   0.552237 1  1F9             Tx   d 6 20 1E 1C 6A F8 FF  Length = 194000 BitCount = 100 ID = 505
   0.552245 1  181             Tx   d 8 1C 6A 32 10 32 20 41 4E  Length = 226000 BitCount = 116 ID = 385
   0.554227 1  1A5             Tx   d 8 EA 21 16 6B DB 68 3A 96  Length = 218000 BitCount = 112 ID = 421
   0.558221 1  1A5             Tx   d 8 0F FF 01 00 00 00 00 00  Length = 240000 BitCount = 123 ID = 421
   0.560226 1  284             Tx   d 8 00 00 00 00 00 00 00 00  Length = 246000 BitCount = 126 ID = 644
   0.561216 1  285             Tx   d 8 00 00 00 00 00 00 00 00  Length = 248000 BitCount = 127 ID = 645
   0.561223 1  161             Tx   d 5 32 23 5E 00 10  Length = 172000 BitCount = 89 ID = 353
   0.561225 1  1F9             Tx   d 6 20 1E 1C 6A F8 FF  Length = 194000 BitCount = 100 ID = 505
   0.562206 1  181             Tx   d 8 1C 6A 32 10 32 20 41 4E  Length = 226000 BitCount = 116 ID = 385
   0.564200 1  1A5             Tx   d 8 21 B6 09 1E E6 5A F1 F1  Length = 222000 BitCount = 114 ID = 421
   0.569193 1  1A5             Tx   d 8 1F FF 01 00 00 00 00 00  Length = 240000 BitCount = 123 ID = 421
   0.570135 1  244             Tx   d 7 FE FE 00 00 00 00 FE  Length = 222000 BitCount = 114 ID = 580
   0.571437 1  354             Tx   d 8 00 00 00 00 00 00 00 00  Length = 244000 BitCount = 125 ID = 852
   0.571445 1  161             Tx   d 5 32 23 5E 00 10  Length = 172000 BitCount = 89 ID = 353
   0.571447 1  1F9             Tx   d 6 20 1E 1C 62 F8 FF  Length = 194000 BitCount = 100 ID = 505
   0.571449 1  181             Tx   d 8 1C 62 32 10 32 20 41 4E  Length = 226000 BitCount = 116 ID = 385
   0.578565 1  1A5             Tx   d 8 2F FF 01 00 00 00 00 00  Length = 240000 BitCount = 123 ID = 421
   0.580630 1  284             Tx   d 8 00 00 00 00 00 00 00 00  Length = 246000 BitCount = 126 ID = 644
   0.580640 1  285             Tx   d 8 00 00 00 00 00 00 00 00  Length = 248000 BitCount = 127 ID = 645
   0.582545 1  161             Tx   d 5 32 23 5E 00 10  Length = 172000 BitCount = 89 ID = 353
   0.582594 1  551             Tx   d 8 68 5C 71 88 FF 7A 00 5E  Length = 224000 BitCount = 115 ID = 1361
   0.582597 1  1F9             Tx   d 6 20 1E 1C 62 F8 FF  Length = 194000 BitCount = 100 ID = 505
   0.582600 1  181             Tx   d 8 1C 62 32 10 32 20 41 4E  Length = 226000 BitCount = 116 ID = 385
   0.582603 1  511             Tx   d 7 00 00 00 00 00 00 00  Length = 224000 BitCount = 115 ID = 1297
   0.582605 1  5DD             Tx   d 3 4C 00 00  Length = 144000 BitCount = 75 ID = 1501
   0.582608 1  65C             Tx   d 1 78  Length = 108000 BitCount = 57 ID = 1628
   0.584090 1  1A5             Tx   d 8 36 8D 62 98 5E 2B 16 9F  Length = 220000 BitCount = 113 ID = 421
   0.588557 1  1A5             Tx   d 8 3F FF 01 00 00 00 00 00  Length = 242000 BitCount = 124 ID = 421
   0.590100 1  244             Tx   d 7 FE FE 00 00 00 00 FE  Length = 222000 BitCount = 114 ID = 580
   0.591062 1  161             Tx   d 5 32 23 5E 00 10  Length = 172000 BitCount = 89 ID = 353
   0.591070 1  1F9             Tx   d 6 20 1E 1C 62 F8 FF  Length = 194000 BitCount = 100 ID = 505
   0.592240 1  181             Tx   d 8 1C 62 32 10 32 20 41 4E  Length = 226000 BitCount = 116 ID = 385
   0.598489 1  1A5             Tx   d 8 4F FF 01 00 00 00 00 00  Length = 238000 BitCount = 122 ID = 421
   0.600310 1  284             Tx   d 8 00 00 00 00 00 00 00 00  Length = 246000 BitCount = 126 ID = 644
   0.600317 1  285             Tx   d 8 00 00 00 00 00 00 00 00  Length = 248000 BitCount = 127 ID = 645
   0.601046 1  161             Tx   d 5 32 23 5E 00 10  Length = 172000 BitCount = 89 ID = 353
   0.602069 1  1F9             Tx   d 6 20 1E 1C 26 F8 FF  Length = 194000 BitCount = 100 ID = 505
   0.602077 1  181             Tx   d 8 1C 26 33 10 32 20 41 4E  Length = 226000 BitCount = 116 ID = 385
   0.604429 1  1A5             Tx   d 8 3C E6 6B 8A 48 BD AB 4E  Length = 220000 BitCount = 113 ID = 421
   0.609091 1  1A5             Tx   d 8 5F FF 01 00 00 00 00 00  Length = 240000 BitCount = 123 ID = 421
   0.610082 1  244             Tx   d 7 FE FE 00 00 00 00 FE  Length = 222000 BitCount = 114 ID = 580
   0.611093 1  354             Tx   d 8 00 00 00 00 00 00 00 00  Length = 244000 BitCount = 125 ID = 852
   0.611100 1  161             Tx   d 5 32 23 5E 00 10  Length = 172000 BitCount = 89 ID = 353
   0.611103 1  1F9             Tx   d 6 20 1E 1C 26 F8 FF  Length = 194000 BitCount = 100 ID = 505
   0.612464 1  181             Tx   d 8 1C 26 33 10 32 20 41 4E  Length = 226000 BitCount = 116 ID = 385
   0.614525 1  1A5             Tx   d 8 F7 B1 0E 7B 3C 5E 26 95  Length = 218000 BitCount = 112 ID = 421
   0.618472 1  1A5             Tx   d 8 6F FF 01 00 00 00 00 00  Length = 238000 BitCount = 122 ID = 421
   0.620573 1  284             Tx   d 8 00 00 00 00 00 00 00 00  Length = 246000 BitCount = 126 ID = 644
   0.620590 1  285             Tx   d 8 00 00 00 00 00 00 00 00  Length = 248000 BitCount = 127 ID = 645
   0.621025 1  161             Tx   d 5 32 23 5E 00 10  Length = 172000 BitCount = 89 ID = 353
   0.621037 1  1F9             Tx   d 6 20 1E 1C 26 F8 FF  Length = 194000 BitCount = 100 ID = 505
   0.622030 1  181             Tx   d 8 1C 26 33 10 32 20 41 4E  Length = 226000 BitCount = 116 ID = 385
   0.624415 1  1A5             Tx   d 8 0B 2E 39 5B 55 DE 6F 73  Length = 220000 BitCount = 113 ID = 421
   0.628379 1  1A5             Tx   d 8 7F FF 01 00 00 00 00 00  Length = 240000 BitCount = 123 ID = 421
   0.630384 1  244             Tx   d 7 FE FE 00 00 00 00 FE  Length = 222000 BitCount = 114 ID = 580
   0.633009 1  161             Tx   d 5 32 23 5E 00 10  Length = 172000 BitCount = 89 ID = 353
   0.633021 1  1F9             Tx   d 6 20 1E 1C 00 F8 FF  Length = 198000 BitCount = 102 ID = 505
   0.634079 1  181             Tx   d 8 1C 00 33 10 32 20 41 4E  Length = 232000 BitCount = 119 ID = 385
   0.638396 1  1A5             Tx   d 8 8F FF 01 00 00 00 00 00  Length = 238000 BitCount = 122 ID = 421
   0.640401 1  284             Tx   d 8 00 00 00 00 00 00 00 00  Length = 246000 BitCount = 126 ID = 644
   0.640417 1  285             Tx   d 8 00 00 00 00 00 00 00 00  Length = 248000 BitCount = 127 ID = 645
   0.642354 1  161             Tx   d 5 32 23 5E 00 10  Length = 172000 BitCount = 89 ID = 353
   0.642370 1  1F9             Tx   d 6 20 1E 1C 00 F8 FF  Length = 198000 BitCount = 102 ID = 505
   0.642373 1  181             Tx   d 8 1C 00 33 10 32 20 41 4E  Length = 232000 BitCount = 119 ID = 385
   0.648997 1  1A5             Tx   d 8 9F FF 01 00 00 00 00 00  Length = 238000 BitCount = 122 ID = 421
   0.650107 1  244             Tx   d 7 FE FE 00 00 00 00 FE  Length = 222000 BitCount = 114 ID = 580
   0.650923 1  354             Tx   d 8 00 00 00 00 00 00 00 00  Length = 244000 BitCount = 125 ID = 852
   0.651938 1  161             Tx   d 5 32 23 5E 00 10  Length = 172000 BitCount = 89 ID = 353
   0.651954 1  1F9             Tx   d 6 20 1E 1C 00 F8 FF  Length = 198000 BitCount = 102 ID = 505
   0.651961 1  181             Tx   d 8 1C 00 33 10 32 20 41 4E  Length = 232000 BitCount = 119 ID = 385
   0.654931 1  1A5             Tx   d 8 40 A8 AF D5 65 8B 93 76  Length = 222000 BitCount = 114 ID = 421
   0.658238 1  1A5             Tx   d 8 AF FF 01 00 00 00 00 00  Length = 242000 BitCount = 124 ID = 421
   0.660325 1  284             Tx   d 8 00 00 00 00 00 00 00 00  Length = 246000 BitCount = 126 ID = 644
   0.660338 1  285             Tx   d 8 00 00 00 00 00 00 00 00  Length = 248000 BitCount = 127 ID = 645
   0.660911 1  161             Tx   d 5 32 23 5E 00 10  Length = 172000 BitCount = 89 ID = 353
   0.660935 1  1F9             Tx   d 6 20 1E 1C 00 F8 FF  Length = 198000 BitCount = 102 ID = 505
   0.662235 1  181             Tx   d 8 1C 00 33 10 32 20 41 4E  Length = 232000 BitCount = 119 ID = 385
   0.669142 1  1A5             Tx   d 8 BF FF 01 00 00 00 00 00  Length = 238000 BitCount = 122 ID = 421
   0.670106 1  244             Tx   d 7 FE FE 00 00 00 00 FE  Length = 222000 BitCount = 114 ID = 580
   0.671107 1  161             Tx   d 5 32 23 5E 00 10  Length = 172000 BitCount = 89 ID = 353
   0.671130 1  1F9             Tx   d 6 20 1E 1B D4 F8 FF  Length = 192000 BitCount = 99 ID = 505
   0.672129 1  181             Tx   d 8 1B D4 33 10 32 20 41 4E  Length = 226000 BitCount = 116 ID = 385
   0.678144 1  1A5             Tx   d 8 CF FF 01 00 00 00 00 00  Length = 242000 BitCount = 124 ID = 421
   0.680213 1  284             Tx   d 8 00 00 00 00 00 00 00 00  Length = 246000 BitCount = 126 ID = 644
   0.680867 1  285             Tx   d 8 00 00 00 00 00 00 00 00  Length = 248000 BitCount = 127 ID = 645
   0.682114 1  161             Tx   d 5 32 23 5E 00 10  Length = 172000 BitCount = 89 ID = 353
   0.682149 1  551             Tx   d 8 68 5C 71 88 FF 7A 00 5E  Length = 224000 BitCount = 115 ID = 1361
   0.682158 1  1F9             Tx   d 6 20 1E 1B D4 F8 FF  Length = 192000 BitCount = 99 ID = 505
   0.682166 1  181             Tx   d 8 1B D4 33 10 32 20 41 4E  Length = 226000 BitCount = 116 ID = 385
   0.682173 1  511             Tx   d 7 00 00 00 00 00 00 00  Length = 224000 BitCount = 115 ID = 1297
   0.682181 1  5DD             Tx   d 3 4C 00 00  Length = 144000 BitCount = 75 ID = 1501
   0.682934 1  65C             Tx   d 1 78  Length = 108000 BitCount = 57 ID = 1628
   0.689126 1  1A5             Tx   d 8 DF FF 01 00 00 00 00 00  Length = 238000 BitCount = 122 ID = 421
   0.691154 1  244             Tx   d 7 FE FE 00 00 00 00 FE  Length = 222000 BitCount = 114 ID = 580
   0.691186 1  354             Tx   d 8 00 00 00 00 00 00 00 00  Length = 244000 BitCount = 125 ID = 852
   0.691196 1  161             Tx   d 5 32 24 5E 00 10  Length = 176000 BitCount = 91 ID = 353
   0.691206 1  1F9             Tx   d 6 20 1E 1B D4 F8 FF  Length = 192000 BitCount = 99 ID = 505
   0.691901 1  181             Tx   d 8 1B D4 33 10 32 20 40 4E  Length = 226000 BitCount = 116 ID = 385
   0.694137 1  1A5             Tx   d 8 67 F9 06 3D FE 6E 57 67  Length = 224000 BitCount = 115 ID = 421
   0.698135 1  1A5             Tx   d 8 EF FF 01 00 00 00 00 00  Length = 240000 BitCount = 123 ID = 421
   0.700854 1  284             Tx   d 8 00 00 00 00 00 00 00 00  Length = 246000 BitCount = 126 ID = 644
   0.700904 1  285             Tx   d 8 00 00 00 00 00 00 00 00  Length = 248000 BitCount = 127 ID = 645
   0.700916 1  161             Tx   d 5 32 24 5E 00 10  Length = 176000 BitCount = 91 ID = 353
   0.701845 1  1F9             Tx   d 6 20 1E 1B B2 F8 FF  Length = 194000 BitCount = 100 ID = 505
   0.701881 1  181             Tx   d 8 1B B2 34 10 32 20 40 4E  Length = 230000 BitCount = 118 ID = 385
   0.704109 1  1A5             Tx   d 8 3D 25 08 94 F3 3F 3C 61  Length = 222000 BitCount = 114 ID = 421
   0.709074 1  1A5             Tx   d 8 FF FF 01 00 00 00 00 00  Length = 240000 BitCount = 123 ID = 421
   0.711104 1  244             Tx   d 7 FE FE 00 00 00 00 FE  Length = 222000 BitCount = 114 ID = 580
   0.711165 1  161             Tx   d 5 32 24 5F 00 10  Length = 176000 BitCount = 91 ID = 353
   0.711178 1  1F9             Tx   d 6 20 1E 1B B2 F8 FF  Length = 194000 BitCount = 100 ID = 505
   0.711885 1  181             Tx   d 8 1B B2 34 10 32 20 40 4E  Length = 230000 BitCount = 118 ID = 385
   0.717868 1  1A5             Tx   d 8 0F FF 01 00 00 00 00 00  Length = 240000 BitCount = 123 ID = 421
   0.720141 1  284             Tx   d 8 00 00 00 00 00 00 00 00  Length = 246000 BitCount = 126 ID = 644
   0.720849 1  285             Tx   d 8 00 00 00 00 00 00 00 00  Length = 248000 BitCount = 127 ID = 645
   0.721795 1  161             Tx   d 5 32 24 5F 00 10  Length = 176000 BitCount = 91 ID = 353
   0.721833 1  1F9             Tx   d 6 20 1E 1B B2 F8 FF  Length = 194000 BitCount = 100 ID = 505
   0.721846 1  181             Tx   d 8 1B B2 34 10 32 20 40 4E  Length = 230000 BitCount = 118 ID = 385
   0.728827 1  1A5             Tx   d 8 1F FF 01 00 00 00 00 00  Length = 240000 BitCount = 123 ID = 421
   0.730809 1  244             Tx   d 7 FE FE 00 00 00 00 FE  Length = 222000 BitCount = 114 ID = 580
   0.730857 1  354             Tx   d 8 00 00 00 00 00 00 00 00  Length = 244000 BitCount = 125 ID = 852
   0.732814 1  161             Tx   d 5 32 24 5F 00 10  Length = 176000 BitCount = 91 ID = 353
   0.733789 1  1F9             Tx   d 6 20 1E 1B B2 F8 FF  Length = 194000 BitCount = 100 ID = 505
   0.733826 1  181             Tx   d 8 1B B2 34 10 32 20 40 4E  Length = 230000 BitCount = 118 ID = 385
   0.737750 1  1A5             Tx   d 8 2F FF 01 00 00 00 00 00  Length = 240000 BitCount = 123 ID = 421
   0.740758 1  284             Tx   d 8 00 00 00 00 00 00 00 00  Length = 246000 BitCount = 126 ID = 644
   0.740805 1  285             Tx   d 8 00 00 00 00 00 00 00 00  Length = 248000 BitCount = 127 ID = 645
   0.741738 1  161             Tx   d 5 32 24 5F 00 10  Length = 176000 BitCount = 91 ID = 353
   0.741774 1  1F9             Tx   d 6 20 1E 1B B2 F8 FF  Length = 194000 BitCount = 100 ID = 505
   0.741786 1  181             Tx   d 8 1B B2 34 10 32 20 40 4E  Length = 230000 BitCount = 118 ID = 385
   0.748698 1  1A5             Tx   d 8 3F FF 01 00 00 00 00 00  Length = 242000 BitCount = 124 ID = 421
   0.750778 1  244             Tx   d 7 FE FE 00 00 00 00 FE  Length = 222000 BitCount = 114 ID = 580
   0.751750 1  161             Tx   d 5 32 24 5F 00 10  Length = 176000 BitCount = 91 ID = 353
   0.751785 1  1F9             Tx   d 6 20 1E 1B B2 F8 FF  Length = 194000 BitCount = 100 ID = 505
   0.752684 1  181             Tx   d 8 1B B2 34 10 32 20 40 4E  Length = 230000 BitCount = 118 ID = 385
   0.757660 1  1A5             Tx   d 8 4F FF 01 00 00 00 00 00  Length = 238000 BitCount = 122 ID = 421
   0.760638 1  284             Tx   d 8 00 00 00 00 00 00 00 00  Length = 246000 BitCount = 126 ID = 644
   0.760662 1  285             Tx   d 8 00 00 00 00 00 00 00 00  Length = 248000 BitCount = 127 ID = 645
   0.761643 1  161             Tx   d 5 32 24 5F 00 10  Length = 176000 BitCount = 91 ID = 353
   0.761669 1  1F9             Tx   d 6 20 1E 1B B2 F8 FF  Length = 194000 BitCount = 100 ID = 505
   0.761679 1  181             Tx   d 8 1B B2 34 10 32 20 40 4E  Length = 230000 BitCount = 118 ID = 385
   0.768636 1  1A5             Tx   d 8 5F FF 01 00 00 00 00 00  Length = 240000 BitCount = 123 ID = 421
   0.770626 1  244             Tx   d 7 FE FE 00 00 00 00 FE  Length = 222000 BitCount = 114 ID = 580
   0.770636 1  354             Tx   d 8 00 00 00 00 00 00 00 00  Length = 244000 BitCount = 125 ID = 852
   0.770638 1  161             Tx   d 5 32 24 5F 00 10  Length = 176000 BitCount = 91 ID = 353
   0.771623 1  1F9             Tx   d 6 20 1E 1B AE F8 FF  Length = 192000 BitCount = 99 ID = 505
   0.771630 1  181             Tx   d 8 1B AE 34 10 32 20 40 4E  Length = 228000 BitCount = 117 ID = 385
   0.777954 1  1A5             Tx   d 8 6F FF 01 00 00 00 00 00  Length = 238000 BitCount = 122 ID = 421
   0.780073 1  284             Tx   d 8 00 00 00 00 00 00 00 00  Length = 246000 BitCount = 126 ID = 644
   0.780562 1  285             Tx   d 8 00 00 00 00 00 00 00 00  Length = 248000 BitCount = 127 ID = 645
   0.781982 1  161             Tx   d 5 32 24 5F 00 10  Length = 176000 BitCount = 91 ID = 353
   0.781997 1  551             Tx   d 8 68 5D 71 88 FF 7A 00 5F  Length = 224000 BitCount = 115 ID = 1361
   0.781999 1  1F9             Tx   d 6 20 1E 1B AE F8 FF  Length = 192000 BitCount = 99 ID = 505
   0.782002 1  181             Tx   d 8 1B AE 34 10 32 20 40 4E  Length = 228000 BitCount = 117 ID = 385
   0.782004 1  511             Tx   d 7 00 00 00 00 00 00 00  Length = 224000 BitCount = 115 ID = 1297
   0.782006 1  5DD             Tx   d 3 4C 00 00  Length = 144000 BitCount = 75 ID = 1501
   0.782009 1  65C             Tx   d 1 78  Length = 108000 BitCount = 57 ID = 1628
   0.788940 1  1A5             Tx   d 8 7F FF 01 00 00 00 00 00  Length = 240000 BitCount = 123 ID = 421
   0.791025 1  244             Tx   d 7 FE FE 00 00 00 00 FE  Length = 222000 BitCount = 114 ID = 580
   0.791045 1  161             Tx   d 5 32 24 5F 00 10  Length = 176000 BitCount = 91 ID = 353
   0.791048 1  1F9             Tx   d 6 20 1E 1B AE F8 FF  Length = 192000 BitCount = 99 ID = 505
   0.791532 1  181             Tx   d 8 1B AE 34 10 32 20 40 4E  Length = 228000 BitCount = 117 ID = 385
   0.794559 1  1A5             Tx   d 8 69 FA AC 18 B5 F1 11 86  Length = 224000 BitCount = 115 ID = 421
   0.797962 1  1A5             Tx   d 8 8F FF 01 00 00 00 00 00  Length = 238000 BitCount = 122 ID = 421
   0.800814 1  284             Tx   d 8 00 00 00 00 00 00 00 00  Length = 246000 BitCount = 126 ID = 644
   0.800824 1  285             Tx   d 8 00 00 00 00 00 00 00 00  Length = 248000 BitCount = 127 ID = 645
   0.802912 1  161             Tx   d 5 32 24 5F 00 10  Length = 176000 BitCount = 91 ID = 353
   0.802927 1  1F9             Tx   d 6 20 1E 1B 94 F8 FF  Length = 192000 BitCount = 99 ID = 505
   0.802929 1  181             Tx   d 8 1B 94 34 10 32 20 40 4E  Length = 228000 BitCount = 117 ID = 385
   0.808873 1  1A5             Tx   d 8 9F FF 01 00 00 00 00 00  Length = 238000 BitCount = 122 ID = 421
   0.810997 1  244             Tx   d 7 FE FE 00 00 00 00 FE  Length = 222000 BitCount = 114 ID = 580
   0.811007 1  354             Tx   d 8 00 00 00 00 00 00 00 00  Length = 244000 BitCount = 125 ID = 852
   0.811010 1  161             Tx   d 5 32 24 5F 00 10  Length = 176000 BitCount = 91 ID = 353
   0.811012 1  1F9             Tx   d 6 20 1E 1B 94 F8 FF  Length = 192000 BitCount = 99 ID = 505
   0.812936 1  181             Tx   d 8 1B 94 34 10 32 20 40 4E  Length = 228000 BitCount = 117 ID = 385
   0.818873 1  1A5             Tx   d 8 AF FF 01 00 00 00 00 00  Length = 242000 BitCount = 124 ID = 421
   0.820899 1  284             Tx   d 8 00 00 00 00 00 00 00 00  Length = 246000 BitCount = 126 ID = 644
   0.820920 1  285             Tx   d 8 00 00 00 00 00 00 00 00  Length = 248000 BitCount = 127 ID = 645
   0.820923 1  161             Tx   d 5 32 24 5F 00 10  Length = 176000 BitCount = 91 ID = 353
   0.822860 1  1F9             Tx   d 6 20 1E 1B 94 F8 FF  Length = 192000 BitCount = 99 ID = 505
   0.822877 1  181             Tx   d 8 1B 94 34 10 32 20 40 4E  Length = 228000 BitCount = 117 ID = 385
   0.828586 1  1A5             Tx   d 8 BF FF 01 00 00 00 00 00  Length = 238000 BitCount = 122 ID = 421
   0.830586 1  244             Tx   d 7 FE FE 00 00 00 00 FE  Length = 222000 BitCount = 114 ID = 580
   0.831578 1  161             Tx   d 5 32 24 5F 00 10  Length = 176000 BitCount = 91 ID = 353
   0.831589 1  1F9             Tx   d 6 20 1E 1B 94 F8 FF  Length = 192000 BitCount = 99 ID = 505
   0.831592 1  181             Tx   d 8 1B 94 34 10 32 20 40 4E  Length = 228000 BitCount = 117 ID = 385
   0.837736 1  1A5             Tx   d 8 CF FF 01 00 00 00 00 00  Length = 242000 BitCount = 124 ID = 421
   0.841660 1  284             Tx   d 8 00 00 00 00 00 00 00 00  Length = 246000 BitCount = 126 ID = 644
   0.841675 1  285             Tx   d 8 00 00 00 00 00 00 00 00  Length = 248000 BitCount = 127 ID = 645
   0.841679 1  161             Tx   d 5 32 24 5F 00 10  Length = 176000 BitCount = 91 ID = 353
   0.841683 1  1F9             Tx   d 6 20 1E 1B B2 F8 FF  Length = 194000 BitCount = 100 ID = 505
   0.841687 1  181             Tx   d 8 1B B2 36 10 32 20 40 4E  Length = 226000 BitCount = 116 ID = 385
   0.843751 1  1A5             Tx   d 8 F3 FB 8A 78 11 8C 2F 2A  Length = 220000 BitCount = 113 ID = 421
   0.848699 1  1A5             Tx   d 8 DF FF 01 00 00 00 00 00  Length = 238000 BitCount = 122 ID = 421
   0.850436 1  244             Tx   d 7 FE FE 00 00 00 00 FE  Length = 222000 BitCount = 114 ID = 580
   0.850460 1  354             Tx   d 8 00 00 00 00 00 00 00 00  Length = 244000 BitCount = 125 ID = 852
   0.851397 1  161             Tx   d 5 32 24 5F 00 10  Length = 176000 BitCount = 91 ID = 353
   0.851416 1  1F9             Tx   d 6 20 1E 1B B2 F8 FF  Length = 194000 BitCount = 100 ID = 505
   0.851421 1  181             Tx   d 8 1B B2 36 10 32 20 40 4E  Length = 226000 BitCount = 116 ID = 385
   0.857717 1  1A5             Tx   d 8 EF FF 01 00 00 00 00 00  Length = 240000 BitCount = 123 ID = 421
   0.860755 1  284             Tx   d 8 00 00 00 00 00 00 00 00  Length = 246000 BitCount = 126 ID = 644
   0.860766 1  285             Tx   d 8 00 00 00 00 00 00 00 00  Length = 248000 BitCount = 127 ID = 645
   0.860768 1  161             Tx   d 5 32 24 5F 00 10  Length = 176000 BitCount = 91 ID = 353
   0.862779 1  1F9             Tx   d 6 20 1E 1B B2 F8 FF  Length = 194000 BitCount = 100 ID = 505
   0.862796 1  181             Tx   d 8 1B B2 36 10 32 20 40 4E  Length = 226000 BitCount = 116 ID = 385
   0.862800 1  1A5             Tx   d 8 72 6E 41 BB B6 95 A0 C4  Length = 222000 BitCount = 114 ID = 421
   0.868744 1  1A5             Tx   d 8 FF FF 01 00 00 00 00 00  Length = 240000 BitCount = 123 ID = 421
   0.870789 1  244             Tx   d 7 FE FE 00 00 00 00 FE  Length = 222000 BitCount = 114 ID = 580
   0.870813 1  161             Tx   d 5 32 23 5F 00 10  Length = 176000 BitCount = 91 ID = 353
   0.872390 1  1F9             Tx   d 6 20 1E 1B BC F8 FF  Length = 194000 BitCount = 100 ID = 505
   0.872405 1  181             Tx   d 8 1B BC 35 10 32 20 41 4E  Length = 226000 BitCount = 116 ID = 385
   0.877828 1  1A5             Tx   d 8 0F FF 01 00 00 00 00 00  Length = 240000 BitCount = 123 ID = 421
   0.881496 1  284             Tx   d 8 00 00 00 00 00 00 00 00  Length = 246000 BitCount = 126 ID = 644
   0.881509 1  285             Tx   d 8 00 00 00 00 00 00 00 00  Length = 248000 BitCount = 127 ID = 645
   0.881513 1  161             Tx   d 5 32 23 5F 00 10  Length = 176000 BitCount = 91 ID = 353
   0.881516 1  551             Tx   d 8 68 5D 71 88 FF 7A 00 5F  Length = 224000 BitCount = 115 ID = 1361
   0.881520 1  1F9             Tx   d 6 20 1E 1B BC F8 FF  Length = 194000 BitCount = 100 ID = 505
   0.882461 1  181             Tx   d 8 1B BC 35 10 32 20 41 4E  Length = 226000 BitCount = 116 ID = 385
   0.882475 1  511             Tx   d 7 00 00 00 00 00 00 00  Length = 224000 BitCount = 115 ID = 1297
   0.882479 1  5DD             Tx   d 3 4C 00 00  Length = 144000 BitCount = 75 ID = 1501
   0.882483 1  65C             Tx   d 1 78  Length = 108000 BitCount = 57 ID = 1628
   0.888482 1  1A5             Tx   d 8 1F FF 01 00 00 00 00 00  Length = 240000 BitCount = 123 ID = 421
   0.890544 1  244             Tx   d 7 FE FE 00 00 00 00 FE  Length = 222000 BitCount = 114 ID = 580
   0.890556 1  354             Tx   d 8 00 00 00 00 00 00 00 00  Length = 244000 BitCount = 125 ID = 852
   0.892524 1  161             Tx   d 5 32 23 5E 00 10  Length = 172000 BitCount = 89 ID = 353
   0.892542 1  1F9             Tx   d 6 20 1E 1B BC F8 FF  Length = 194000 BitCount = 100 ID = 505
   0.892549 1  181             Tx   d 8 1B BC 35 10 32 20 41 4E  Length = 226000 BitCount = 116 ID = 385
   0.898502 1  1A5             Tx   d 8 2F FF 01 00 00 00 00 00  Length = 240000 BitCount = 123 ID = 421
   0.900622 1  284             Tx   d 8 00 00 00 00 00 00 00 00  Length = 246000 BitCount = 126 ID = 644
   0.900660 1  285             Tx   d 8 00 00 00 00 00 00 00 00  Length = 248000 BitCount = 127 ID = 645
   0.903505 1  161             Tx   d 5 32 23 5E 00 10  Length = 172000 BitCount = 89 ID = 353
   0.903536 1  1F9             Tx   d 6 20 1E 1B AA F8 FF  Length = 196000 BitCount = 101 ID = 505
   0.903550 1  181             Tx   d 8 1B AA 33 10 32 20 41 4E  Length = 226000 BitCount = 116 ID = 385
   0.904496 1  1A5             Tx   d 8 FD 24 D6 9A 5B 5F 0B BB  Length = 222000 BitCount = 114 ID = 421
   0.908447 1  1A5             Tx   d 8 3F FF 01 00 00 00 00 00  Length = 242000 BitCount = 124 ID = 421
   0.910436 1  244             Tx   d 7 FE FE 00 00 00 00 FE  Length = 222000 BitCount = 114 ID = 580
   0.911460 1  161             Tx   d 5 32 23 5E 00 10  Length = 172000 BitCount = 89 ID = 353
   0.911484 1  1F9             Tx   d 6 20 1E 1B AA F8 FF  Length = 196000 BitCount = 101 ID = 505
   0.911486 1  181             Tx   d 8 1B AA 33 10 32 20 41 4E  Length = 226000 BitCount = 116 ID = 385
   0.918490 1  1A5             Tx   d 8 4F FF 01 00 00 00 00 00  Length = 238000 BitCount = 122 ID = 421
   0.920494 1  284             Tx   d 8 00 00 00 00 00 00 00 00  Length = 246000 BitCount = 126 ID = 644
   0.920500 1  285             Tx   d 8 00 00 00 00 00 00 00 00  Length = 248000 BitCount = 127 ID = 645
   0.921474 1  161             Tx   d 5 32 23 5E 00 10  Length = 172000 BitCount = 89 ID = 353
   0.922452 1  1F9             Tx   d 6 20 1E 1B AA F8 FF  Length = 196000 BitCount = 101 ID = 505
   0.922460 1  181             Tx   d 8 1B AA 33 10 32 20 41 4E  Length = 226000 BitCount = 116 ID = 385
   0.928452 1  1A5             Tx   d 8 5F FF 01 00 00 00 00 00  Length = 240000 BitCount = 123 ID = 421
   0.930396 1  244             Tx   d 7 FE FE 00 00 00 00 FE  Length = 222000 BitCount = 114 ID = 580
   0.930405 1  354             Tx   d 8 00 00 00 00 00 00 00 00  Length = 244000 BitCount = 125 ID = 852
   0.931392 1  161             Tx   d 5 32 23 5E 00 10  Length = 172000 BitCount = 89 ID = 353
   0.931398 1  1F9             Tx   d 6 20 1E 1B AA F8 FF  Length = 196000 BitCount = 101 ID = 505
   0.931401 1  181             Tx   d 8 1B AA 33 10 32 20 41 4E  Length = 226000 BitCount = 116 ID = 385
   0.938438 1  1A5             Tx   d 8 6F FF 01 00 00 00 00 00  Length = 238000 BitCount = 122 ID = 421
   0.940808 1  284             Tx   d 8 00 00 00 00 00 00 00 00  Length = 246000 BitCount = 126 ID = 644
   0.940827 1  285             Tx   d 8 00 00 00 00 00 00 00 00  Length = 248000 BitCount = 127 ID = 645
   0.940830 1  161             Tx   d 5 32 23 5E 00 10  Length = 172000 BitCount = 89 ID = 353
   0.942898 1  1F9             Tx   d 6 20 1E 1B 74 F8 FF  Length = 192000 BitCount = 99 ID = 505
   0.942912 1  181             Tx   d 8 1B 74 35 10 32 20 41 4E  Length = 228000 BitCount = 117 ID = 385
   0.948812 1  1A5             Tx   d 8 7F FF 01 00 00 00 00 00  Length = 240000 BitCount = 123 ID = 421
   0.950501 1  244             Tx   d 7 FE FE 00 00 00 00 FE  Length = 222000 BitCount = 114 ID = 580
   0.951432 1  161             Tx   d 5 32 23 5E 00 10  Length = 172000 BitCount = 89 ID = 353
   0.951439 1  1F9             Tx   d 6 20 1E 1B 74 F8 FF  Length = 192000 BitCount = 99 ID = 505
   0.951442 1  181             Tx   d 8 1B 74 35 10 32 20 41 4E  Length = 228000 BitCount = 117 ID = 385
   0.958262 1  1A5             Tx   d 8 8F FF 01 00 00 00 00 00  Length = 238000 BitCount = 122 ID = 421
   0.960356 1  284             Tx   d 8 00 00 00 00 00 00 00 00  Length = 246000 BitCount = 126 ID = 644
   0.960376 1  285             Tx   d 8 00 00 00 00 00 00 00 00  Length = 248000 BitCount = 127 ID = 645
   0.962335 1  161             Tx   d 5 32 23 5E 00 10  Length = 172000 BitCount = 89 ID = 353
   0.962350 1  1F9             Tx   d 6 20 1E 1B 74 F8 FF  Length = 192000 BitCount = 99 ID = 505
   0.962353 1  181             Tx   d 8 1B 74 35 10 32 20 41 4E  Length = 228000 BitCount = 117 ID = 385
   0.968825 1  1A5             Tx   d 8 9F FF 01 00 00 00 00 00  Length = 238000 BitCount = 122 ID = 421
   0.970840 1  244             Tx   d 7 FE FE 00 00 00 00 FE  Length = 222000 BitCount = 114 ID = 580
   0.970874 1  354             Tx   d 8 00 00 00 00 00 00 00 00  Length = 244000 BitCount = 125 ID = 852
   0.971838 1  161             Tx   d 5 32 23 5E 00 10  Length = 172000 BitCount = 89 ID = 353
   0.971845 1  1F9             Tx   d 6 20 1E 1B 7C F8 FF  Length = 196000 BitCount = 101 ID = 505
   0.972824 1  181             Tx   d 8 1B 7C 36 10 32 20 41 4E  Length = 230000 BitCount = 118 ID = 385
   0.977817 1  1A5             Tx   d 8 AF FF 01 00 00 00 00 00  Length = 242000 BitCount = 124 ID = 421
   0.980993 1  284             Tx   d 8 00 00 00 00 00 00 00 00  Length = 246000 BitCount = 126 ID = 644
   0.981000 1  285             Tx   d 8 00 00 00 00 00 00 00 00  Length = 248000 BitCount = 127 ID = 645
   0.981002 1  161             Tx   d 5 32 23 5E 00 10  Length = 172000 BitCount = 89 ID = 353
   0.981844 1  551             Tx   d 8 68 5D 71 88 FF 7A 00 5F  Length = 224000 BitCount = 115 ID = 1361
   0.981852 1  1F9             Tx   d 6 20 1E 1B 7C F8 FF  Length = 196000 BitCount = 101 ID = 505
   0.981854 1  181             Tx   d 8 1B 7C 36 10 32 20 41 4E  Length = 230000 BitCount = 118 ID = 385
   0.981856 1  511             Tx   d 7 00 00 00 00 00 00 00  Length = 224000 BitCount = 115 ID = 1297
   0.981859 1  5DD             Tx   d 3 4C 00 00  Length = 144000 BitCount = 75 ID = 1501
   0.982916 1  65C             Tx   d 1 78  Length = 108000 BitCount = 57 ID = 1628
   0.988828 1  1A5             Tx   d 8 BF FF 01 00 00 00 00 00  Length = 238000 BitCount = 122 ID = 421
   0.990824 1  244             Tx   d 7 FE FE 00 00 00 00 FE  Length = 222000 BitCount = 114 ID = 580
   0.990834 1  161             Tx   d 5 32 23 5E 00 10  Length = 172000 BitCount = 89 ID = 353
   0.991814 1  1F9             Tx   d 6 20 1E 1B 7C F8 FF  Length = 196000 BitCount = 101 ID = 505
   0.991822 1  181             Tx   d 8 1B 7C 36 10 32 20 41 4E  Length = 230000 BitCount = 118 ID = 385
   0.997844 1  1A5             Tx   d 8 CF FF 01 00 00 00 00 00  Length = 242000 BitCount = 124 ID = 421
   1.000924 CAN 1 Status:chip status error active
   1.000946 1  284             Tx   d 8 00 00 00 00 00 00 00 00  Length = 246000 BitCount = 126 ID = 644
   1.000957 1  285             Tx   d 8 00 00 00 00 00 00 00 00  Length = 248000 BitCount = 127 ID = 645
   1.003791 1  161             Tx   d 5 32 23 5E 00 10  Length = 172000 BitCount = 89 ID = 353
   1.003816 1  1F9             Tx   d 6 20 1E 1B 7C F8 FF  Length = 196000 BitCount = 101 ID = 505
   1.003819 1  181             Tx   d 8 1B 7C 36 10 32 20 41 4E  Length = 230000 BitCount = 118 ID = 385
   1.008779 1  1A5             Tx   d 8 DF FF 01 00 00 00 00 00  Length = 238000 BitCount = 122 ID = 421
   1.010769 1  244             Tx   d 7 FE FE 00 00 00 00 FE  Length = 222000 BitCount = 114 ID = 580
   1.010775 1  354             Tx   d 8 00 00 00 00 00 00 00 00  Length = 244000 BitCount = 125 ID = 852
   1.010777 1  161             Tx   d 5 32 23 5E 00 10  Length = 172000 BitCount = 89 ID = 353
   1.011783 1  1F9             Tx   d 6 20 1E 1B B6 F8 FF  Length = 192000 BitCount = 99 ID = 505
   1.011790 1  181             Tx   d 8 1B B6 36 10 32 20 41 4E  Length = 228000 BitCount = 117 ID = 385
   1.017748 1  1A5             Tx   d 8 EF FF 01 00 00 00 00 00  Length = 240000 BitCount = 123 ID = 421
   1.020742 1  284             Tx   d 8 00 00 00 00 00 00 00 00  Length = 246000 BitCount = 126 ID = 644
   1.020748 1  285             Tx   d 8 00 00 00 00 00 00 00 00  Length = 248000 BitCount = 127 ID = 645
   1.020751 1  161             Tx   d 5 32 23 5E 00 10  Length = 172000 BitCount = 89 ID = 353
   1.021737 1  1F9             Tx   d 6 20 1E 1B B6 F8 FF  Length = 192000 BitCount = 99 ID = 505
   1.021745 1  181             Tx   d 8 1B B6 36 10 32 20 41 4E  Length = 228000 BitCount = 117 ID = 385
   1.028712 1  1A5             Tx   d 8 FF FF 01 00 00 00 00 00  Length = 240000 BitCount = 123 ID = 421
   1.030694 1  244             Tx   d 7 FE FE 00 00 00 00 FE  Length = 222000 BitCount = 114 ID = 580
   1.031666 1  161             Tx   d 5 32 23 5E 00 10  Length = 172000 BitCount = 89 ID = 353
   1.031672 1  1F9             Tx   d 6 20 1E 1B B6 F8 FF  Length = 192000 BitCount = 99 ID = 505
   1.031674 1  181             Tx   d 8 1B B6 36 10 32 20 41 4E  Length = 228000 BitCount = 117 ID = 385
   1.037689 1  1A5             Tx   d 8 0F FF 01 00 00 00 00 00  Length = 240000 BitCount = 123 ID = 421
   1.040898 1  284             Tx   d 8 00 00 00 00 00 00 00 00  Length = 246000 BitCount = 126 ID = 644
   1.040904 1  285             Tx   d 8 00 00 00 00 00 00 00 00  Length = 248000 BitCount = 127 ID = 645
   1.041827 1  161             Tx   d 5 32 23 5E 00 10  Length = 172000 BitCount = 89 ID = 353
   1.041833 1  1F9             Tx   d 6 20 1E 1B EE F8 FF  Length = 196000 BitCount = 101 ID = 505
   1.041836 1  181             Tx   d 8 1B EE 35 10 32 20 41 4E  Length = 230000 BitCount = 118 ID = 385
   1.048968 1  1A5             Tx   d 8 1F FF 01 00 00 00 00 00  Length = 240000 BitCount = 123 ID = 421
   1.050674 1  244             Tx   d 7 FE FE 00 00 00 00 FE  Length = 222000 BitCount = 114 ID = 580
   1.050682 1  354             Tx   d 8 00 00 00 00 00 00 00 00  Length = 244000 BitCount = 125 ID = 852
   1.050685 1  161             Tx   d 5 32 23 5E 00 10  Length = 172000 BitCount = 89 ID = 353
   1.051678 1  1F9             Tx   d 6 20 1E 1B EE F8 FF  Length = 196000 BitCount = 101 ID = 505
   1.051686 1  181             Tx   d 8 1B EE 35 10 32 20 41 4E  Length = 230000 BitCount = 118 ID = 385
   1.053989 1  1A5             Tx   d 8 1F 4E D8 97 DE 86 F2 BD  Length = 222000 BitCount = 114 ID = 421
   1.059099 1  1A5             Tx   d 8 2F FF 01 00 00 00 00 00  Length = 240000 BitCount = 123 ID = 421
   1.061202 1  284             Tx   d 8 00 00 00 00 00 00 00 00  Length = 246000 BitCount = 126 ID = 644
   1.061223 1  285             Tx   d 8 00 00 00 00 00 00 00 00  Length = 248000 BitCount = 127 ID = 645
   1.061227 1  161             Tx   d 5 32 23 5E 00 10  Length = 172000 BitCount = 89 ID = 353
   1.061261 1  1F9             Tx   d 6 20 1E 1B EE F8 FF  Length = 196000 BitCount = 101 ID = 505
   1.061264 1  181             Tx   d 8 1B EE 35 10 32 20 41 4E  Length = 230000 BitCount = 118 ID = 385
   1.065032 1  1A5             Tx   d 8 1D 98 5C C4 6A 58 20 9A  Length = 222000 BitCount = 114 ID = 421
   1.069000 1  1A5             Tx   d 8 3F FF 01 00 00 00 00 00  Length = 242000 BitCount = 124 ID = 421
   1.071091 1  244             Tx   d 7 FE FE 00 00 00 00 FE  Length = 222000 BitCount = 114 ID = 580
   1.073088 1  161             Tx   d 5 32 23 5E 00 10  Length = 172000 BitCount = 89 ID = 353
   1.073103 1  1F9             Tx   d 6 20 1E 1B E8 F8 FF  Length = 194000 BitCount = 100 ID = 505
   1.073600 1  181             Tx   d 8 1B E8 34 10 32 20 41 4E  Length = 236000 BitCount = 121 ID = 385
   1.078589 1  1A5             Tx   d 8 4F FF 01 00 00 00 00 00  Length = 238000 BitCount = 122 ID = 421
   1.080878 1  284             Tx   d 8 00 00 00 00 00 00 00 00  Length = 246000 BitCount = 126 ID = 644
   1.080888 1  285             Tx   d 8 00 00 00 00 00 00 00 00  Length = 248000 BitCount = 127 ID = 645
   1.081668 1  161             Tx   d 5 32 23 5E 00 10  Length = 172000 BitCount = 89 ID = 353
   1.081673 1  551             Tx   d 8 69 5D 71 88 FF 7A 00 5F  Length = 224000 BitCount = 115 ID = 1361
   1.081676 1  1F9             Tx   d 6 20 1E 1B E8 F8 FF  Length = 194000 BitCount = 100 ID = 505
   1.082581 1  181             Tx   d 8 1B E8 34 10 32 20 41 4E  Length = 236000 BitCount = 121 ID = 385
   1.082586 1  511             Tx   d 7 00 00 00 00 00 00 00  Length = 224000 BitCount = 115 ID = 1297
   1.082588 1  5DD             Tx   d 3 4C 00 00  Length = 144000 BitCount = 75 ID = 1501
   1.082591 1  65C             Tx   d 1 78  Length = 108000 BitCount = 57 ID = 1628
   1.088967 1  1A5             Tx   d 8 5F FF 01 00 00 00 00 00  Length = 240000 BitCount = 123 ID = 421
   1.091015 1  244             Tx   d 7 FE FE 00 00 00 00 FE  Length = 222000 BitCount = 114 ID = 580
   1.091035 1  354             Tx   d 8 00 00 00 00 00 00 00 00  Length = 244000 BitCount = 125 ID = 852
   1.091569 1  161             Tx   d 5 32 23 5E 00 10  Length = 172000 BitCount = 89 ID = 353
   1.091579 1  1F9             Tx   d 6 20 1E 1B E8 F8 FF  Length = 194000 BitCount = 100 ID = 505
   1.091582 1  181             Tx   d 8 1B E8 34 10 32 20 41 4E  Length = 236000 BitCount = 121 ID = 385
   1.097882 1  1A5             Tx   d 8 6F FF 01 00 00 00 00 00  Length = 238000 BitCount = 122 ID = 421
   1.100812 1  284             Tx   d 8 00 00 00 00 00 00 00 00  Length = 246000 BitCount = 126 ID = 644
   1.100835 1  285             Tx   d 8 00 00 00 00 00 00 00 00  Length = 248000 BitCount = 127 ID = 645
   1.100838 1  161             Tx   d 5 32 23 5E 00 10  Length = 172000 BitCount = 89 ID = 353
   1.101797 1  1F9             Tx   d 6 20 1E 1B E8 F8 FF  Length = 194000 BitCount = 100 ID = 505
   1.101815 1  181             Tx   d 8 1B E8 34 10 32 20 41 4E  Length = 236000 BitCount = 121 ID = 385
   1.108870 1  1A5             Tx   d 8 7F FF 01 00 00 00 00 00  Length = 240000 BitCount = 123 ID = 421
   1.110663 1  244             Tx   d 7 FE FE 00 00 00 00 FE  Length = 222000 BitCount = 114 ID = 580
   1.111634 1  161             Tx   d 5 32 23 5E 00 10  Length = 172000 BitCount = 89 ID = 353
   1.111646 1  1F9             Tx   d 6 20 1E 1C 16 F8 FF  Length = 194000 BitCount = 100 ID = 505
   1.111650 1  181             Tx   d 8 1C 16 35 10 32 20 41 4E  Length = 228000 BitCount = 117 ID = 385
   1.117781 1  1A5             Tx   d 8 8F FF 01 00 00 00 00 00  Length = 238000 BitCount = 122 ID = 421
   1.120797 1  284             Tx   d 8 00 00 00 00 00 00 00 00  Length = 246000 BitCount = 126 ID = 644
   1.120814 1  285             Tx   d 8 00 00 00 00 00 00 00 00  Length = 248000 BitCount = 127 ID = 645
   1.122822 1  161             Tx   d 5 32 23 5E 00 10  Length = 172000 BitCount = 89 ID = 353
   1.122851 1  1F9             Tx   d 6 20 1E 1C 16 F8 FF  Length = 194000 BitCount = 100 ID = 505
   1.122857 1  181             Tx   d 8 1C 16 35 10 32 20 41 4E  Length = 228000 BitCount = 117 ID = 385
   1.128541 1  1A5             Tx   d 8 9F FF 01 00 00 00 00 00  Length = 238000 BitCount = 122 ID = 421
   1.130524 1  244             Tx   d 7 FE FE 00 00 00 00 FE  Length = 222000 BitCount = 114 ID = 580
   1.130556 1  354             Tx   d 8 00 00 00 00 00 00 00 00  Length = 244000 BitCount = 125 ID = 852
   1.131519 1  161             Tx   d 5 32 23 5E 00 10  Length = 172000 BitCount = 89 ID = 353
   1.131543 1  1F9             Tx   d 6 20 1E 1C 16 F8 FF  Length = 194000 BitCount = 100 ID = 505
   1.131551 1  181             Tx   d 8 1C 16 35 10 32 20 41 4E  Length = 228000 BitCount = 117 ID = 385
   1.134511 1  1A5             Tx   d 8 C3 C7 40 09 8C ED AA 00  Length = 224000 BitCount = 115 ID = 421
   1.138439 1  1A5             Tx   d 8 AF FF 01 00 00 00 00 00  Length = 242000 BitCount = 124 ID = 421
   1.140387 1  284             Tx   d 8 00 00 00 00 00 00 00 00  Length = 246000 BitCount = 126 ID = 644
   1.140400 1  285             Tx   d 8 00 00 00 00 00 00 00 00  Length = 248000 BitCount = 127 ID = 645
   1.141377 1  161             Tx   d 5 32 23 5E 00 10  Length = 172000 BitCount = 89 ID = 353
   1.141384 1  1F9             Tx   d 6 20 1E 1C 24 F8 FF  Length = 194000 BitCount = 100 ID = 505
   1.141386 1  181             Tx   d 8 1C 24 34 10 32 20 41 4E  Length = 230000 BitCount = 118 ID = 385
   1.144421 1  1A5             Tx   d 8 F7 04 08 69 60 59 16 3C  Length = 222000 BitCount = 114 ID = 421
   1.148817 1  1A5             Tx   d 8 BF FF 01 00 00 00 00 00  Length = 238000 BitCount = 122 ID = 421
   1.150437 1  244             Tx   d 7 FE FE 00 00 00 00 FE  Length = 222000 BitCount = 114 ID = 580
   1.151788 1  161             Tx   d 5 32 23 5E 00 10  Length = 172000 BitCount = 89 ID = 353
   1.151804 1  1F9             Tx   d 6 20 1E 1C 24 F8 FF  Length = 194000 BitCount = 100 ID = 505
   1.151806 1  181             Tx   d 8 1C 24 34 10 32 20 41 4E  Length = 230000 BitCount = 118 ID = 385
   1.153898 1  1A5             Tx   d 8 A6 0B 6E 8D B8 AB 83 34  Length = 220000 BitCount = 113 ID = 421
   1.157890 1  1A5             Tx   d 8 CF FF 01 00 00 00 00 00  Length = 242000 BitCount = 124 ID = 421
   1.160751 1  284             Tx   d 8 00 00 00 00 00 00 00 00  Length = 246000 BitCount = 126 ID = 644
   1.160771 1  285             Tx   d 8 00 00 00 00 00 00 00 00  Length = 248000 BitCount = 127 ID = 645
   1.162885 1  161             Tx   d 5 32 23 5E 00 10  Length = 172000 BitCount = 89 ID = 353
   1.162900 1  1F9             Tx   d 6 20 1E 1C 24 F8 FF  Length = 194000 BitCount = 100 ID = 505
   1.162902 1  181             Tx   d 8 1C 24 34 10 32 20 41 4E  Length = 230000 BitCount = 118 ID = 385
   1.164883 1  1A5             Tx   d 8 19 54 8B AF 0D 6E 3B 11  Length = 218000 BitCount = 112 ID = 421
   1.168812 1  1A5             Tx   d 8 DF FF 01 00 00 00 00 00  Length = 238000 BitCount = 122 ID = 421
   1.170839 1  244             Tx   d 7 FE FE 00 00 00 00 FE  Length = 222000 BitCount = 114 ID = 580
   1.170877 1  354             Tx   d 8 00 00 00 00 00 00 00 00  Length = 244000 BitCount = 125 ID = 852
   1.172687 1  161             Tx   d 5 32 23 5E 00 10  Length = 172000 BitCount = 89 ID = 353
   1.172703 1  1F9             Tx   d 6 20 1E 1C 4C F8 FF  Length = 194000 BitCount = 100 ID = 505
   1.173688 1  181             Tx   d 8 1C 4C 34 10 32 20 41 4E  Length = 230000 BitCount = 118 ID = 385
   1.178686 1  1A5             Tx   d 8 EF FF 01 00 00 00 00 00  Length = 240000 BitCount = 123 ID = 421
   1.180686 1  284             Tx   d 8 00 00 00 00 00 00 00 00  Length = 246000 BitCount = 126 ID = 644
   1.180708 1  285             Tx   d 8 00 00 00 00 00 00 00 00  Length = 248000 BitCount = 127 ID = 645
   1.182350 1  161             Tx   d 5 32 23 5E 00 10  Length = 172000 BitCount = 89 ID = 353
   1.182369 1  551             Tx   d 8 69 5E 71 88 FF 7A 00 60  Length = 226000 BitCount = 116 ID = 1361
   1.182373 1  1F9             Tx   d 6 20 1E 1C 4C F8 FF  Length = 194000 BitCount = 100 ID = 505
   1.182376 1  181             Tx   d 8 1C 4C 34 10 32 20 41 4E  Length = 230000 BitCount = 118 ID = 385
   1.182379 1  511             Tx   d 7 00 00 00 00 00 00 00  Length = 224000 BitCount = 115 ID = 1297
   1.182383 1  5DD             Tx   d 3 4C 00 00  Length = 144000 BitCount = 75 ID = 1501
   1.182386 1  65C             Tx   d 1 78  Length = 108000 BitCount = 57 ID = 1628
   1.184651 1  1A5             Tx   d 8 8C CB BF FD CD 26 B4 87  Length = 220000 BitCount = 113 ID = 421
   1.188647 1  1A5             Tx   d 8 FF FF 01 00 00 00 00 00  Length = 240000 BitCount = 123 ID = 421
   1.190664 1  244             Tx   d 7 FE FE 00 00 00 00 FE  Length = 222000 BitCount = 114 ID = 580
   1.192651 1  161             Tx   d 5 32 23 5E 00 10  Length = 172000 BitCount = 89 ID = 353
   1.192674 1  1F9             Tx   d 6 20 1E 1C 4C F8 FF  Length = 194000 BitCount = 100 ID = 505
   1.192678 1  181             Tx   d 8 1C 4C 34 10 32 20 41 4E  Length = 230000 BitCount = 118 ID = 385
   1.194641 1  1A5             Tx   d 8 F0 F7 49 5E 9D 76 8F 8E  Length = 218000 BitCount = 112 ID = 421
   1.198582 1  1A5             Tx   d 8 0F FF 01 00 00 00 00 00  Length = 240000 BitCount = 123 ID = 421
   1.200657 1  284             Tx   d 8 00 00 00 00 00 00 00 00  Length = 246000 BitCount = 126 ID = 644
   1.200675 1  285             Tx   d 8 00 00 00 00 00 00 00 00  Length = 248000 BitCount = 127 ID = 645
   1.202627 1  161             Tx   d 5 32 23 5E 00 10  Length = 172000 BitCount = 89 ID = 353
   1.202655 1  1F9             Tx   d 6 20 1E 1C 4C F8 FF  Length = 194000 BitCount = 100 ID = 505
   1.202662 1  181             Tx   d 8 1C 4C 34 10 32 20 41 4E  Length = 230000 BitCount = 118 ID = 385
   1.204336 1  1A5             Tx   d 8 31 8D F4 13 6B 8D D6 72  Length = 222000 BitCount = 114 ID = 421
   1.209248 1  1A5             Tx   d 8 1F FF 01 00 00 00 00 00  Length = 240000 BitCount = 123 ID = 421
   1.210311 1  244             Tx   d 7 FE FE 00 00 00 00 FE  Length = 222000 BitCount = 114 ID = 580
   1.210317 1  354             Tx   d 8 00 00 00 00 00 00 00 00  Length = 244000 BitCount = 125 ID = 852
   1.211636 1  161             Tx   d 5 32 23 5E 00 10  Length = 172000 BitCount = 89 ID = 353
   1.211650 1  1F9             Tx   d 6 20 1E 1C 3A F8 FF  Length = 192000 BitCount = 99 ID = 505
   1.211653 1  181             Tx   d 8 1C 3A 33 10 32 20 41 4E  Length = 226000 BitCount = 116 ID = 385
   1.218633 1  1A5             Tx   d 8 2F FF 01 00 00 00 00 00  Length = 240000 BitCount = 123 ID = 421
   1.220652 1  284             Tx   d 8 00 00 00 00 00 00 00 00  Length = 246000 BitCount = 126 ID = 644
   1.220663 1  285             Tx   d 8 00 00 00 00 00 00 00 00  Length = 248000 BitCount = 127 ID = 645
   1.222607 1  161             Tx   d 5 32 23 5E 00 10  Length = 172000 BitCount = 89 ID = 353
   1.222624 1  1F9             Tx   d 6 20 1E 1C 3A F8 FF  Length = 192000 BitCount = 99 ID = 505
   1.222627 1  181             Tx   d 8 1C 3A 33 10 32 20 41 4E  Length = 226000 BitCount = 116 ID = 385
   1.229213 1  1A5             Tx   d 8 3F FF 01 00 00 00 00 00  Length = 242000 BitCount = 124 ID = 421
   1.230222 1  244             Tx   d 7 FE FE 00 00 00 00 FE  Length = 222000 BitCount = 114 ID = 580
   1.231207 1  161             Tx   d 5 32 23 5E 00 10  Length = 172000 BitCount = 89 ID = 353
   1.231214 1  1F9             Tx   d 6 20 1E 1C 3A F8 FF  Length = 192000 BitCount = 99 ID = 505
   1.232210 1  181             Tx   d 8 1C 3A 33 10 32 20 41 4E  Length = 226000 BitCount = 116 ID = 385
   1.238565 1  1A5             Tx   d 8 4F FF 01 00 00 00 00 00  Length = 238000 BitCount = 122 ID = 421
   1.240679 1  284             Tx   d 8 00 00 00 00 00 00 00 00  Length = 246000 BitCount = 126 ID = 644
   1.240689 1  285             Tx   d 8 00 00 00 00 00 00 00 00  Length = 248000 BitCount = 127 ID = 645
   1.242670 1  161             Tx   d 5 32 23 5E 00 10  Length = 172000 BitCount = 89 ID = 353
   1.242685 1  1F9             Tx   d 6 20 1E 1C 40 F8 FF  Length = 194000 BitCount = 100 ID = 505
   1.242688 1  181             Tx   d 8 1C 40 33 10 32 20 41 4E  Length = 228000 BitCount = 117 ID = 385
   1.248595 1  1A5             Tx   d 8 5F FF 01 00 00 00 00 00  Length = 240000 BitCount = 123 ID = 421
   1.250236 1  244             Tx   d 7 FE FE 00 00 00 00 FE  Length = 222000 BitCount = 114 ID = 580
   1.251568 1  354             Tx   d 8 00 00 00 00 00 00 00 00  Length = 244000 BitCount = 125 ID = 852
   1.251582 1  161             Tx   d 5 32 23 5E 00 10  Length = 172000 BitCount = 89 ID = 353
   1.251585 1  1F9             Tx   d 6 20 1E 1C 40 F8 FF  Length = 194000 BitCount = 100 ID = 505
   1.251587 1  181             Tx   d 8 1C 40 33 10 32 20 41 4E  Length = 228000 BitCount = 117 ID = 385
   1.258496 1  1A5             Tx   d 8 6F FF 01 00 00 00 00 00  Length = 238000 BitCount = 122 ID = 421
   1.260486 1  284             Tx   d 8 00 00 00 00 00 00 00 00  Length = 246000 BitCount = 126 ID = 644
   1.260506 1  285             Tx   d 8 00 00 00 00 00 00 00 00  Length = 248000 BitCount = 127 ID = 645
   1.261554 1  161             Tx   d 5 32 23 5E 00 10  Length = 172000 BitCount = 89 ID = 353
   1.261570 1  1F9             Tx   d 6 20 1E 1C 40 F8 FF  Length = 194000 BitCount = 100 ID = 505
   1.261572 1  181             Tx   d 8 1C 40 33 10 32 20 41 4E  Length = 228000 BitCount = 117 ID = 385
   1.268507 1  1A5             Tx   d 8 7F FF 01 00 00 00 00 00  Length = 240000 BitCount = 123 ID = 421
   1.270497 1  244             Tx   d 7 FE FE 00 00 00 00 FE  Length = 222000 BitCount = 114 ID = 580
   1.272469 1  161             Tx   d 5 32 23 5E 00 10  Length = 172000 BitCount = 89 ID = 353
   1.272487 1  1F9             Tx   d 6 20 1E 1C 20 F8 FF  Length = 194000 BitCount = 100 ID = 505
   1.273064 1  181             Tx   d 8 1C 20 33 10 32 20 41 4E  Length = 228000 BitCount = 117 ID = 385
   1.278386 1  1A5             Tx   d 8 8F FF 01 00 00 00 00 00  Length = 238000 BitCount = 122 ID = 421
   1.280442 1  284             Tx   d 8 00 00 00 00 00 00 00 00  Length = 246000 BitCount = 126 ID = 644
   1.280468 1  285             Tx   d 8 00 00 00 00 00 00 00 00  Length = 248000 BitCount = 127 ID = 645
   1.281051 1  161             Tx   d 5 32 23 5E 00 10  Length = 172000 BitCount = 89 ID = 353
   1.282180 1  551             Tx   d 8 68 5E 71 88 FF 7A 00 60  Length = 224000 BitCount = 115 ID = 1361
   1.282201 1  1F9             Tx   d 6 20 1E 1C 20 F8 FF  Length = 194000 BitCount = 100 ID = 505
   1.282205 1  181             Tx   d 8 1C 20 33 10 32 20 41 4E  Length = 228000 BitCount = 117 ID = 385
   1.282209 1  511             Tx   d 7 00 00 00 00 00 00 00  Length = 224000 BitCount = 115 ID = 1297
   1.282213 1  5DD             Tx   d 3 4C 00 00  Length = 144000 BitCount = 75 ID = 1501
   1.283329 1  65C             Tx   d 1 78  Length = 108000 BitCount = 57 ID = 1628
   1.289341 1  1A5             Tx   d 8 9F FF 01 00 00 00 00 00  Length = 238000 BitCount = 122 ID = 421
   1.290069 1  244             Tx   d 7 FE FE 00 00 00 00 FE  Length = 222000 BitCount = 114 ID = 580
   1.291303 1  354             Tx   d 8 00 00 00 00 00 00 00 00  Length = 244000 BitCount = 125 ID = 852
   1.291326 1  161             Tx   d 5 32 23 5E 00 10  Length = 172000 BitCount = 89 ID = 353
   1.291331 1  1F9             Tx   d 6 20 1E 1C 20 F8 FF  Length = 194000 BitCount = 100 ID = 505
   1.291335 1  181             Tx   d 8 1C 20 33 10 32 20 41 4E  Length = 228000 BitCount = 117 ID = 385
   1.295318 1  1A5             Tx   d 8 2B 98 8A E8 F6 A6 0A 2E  Length = 220000 BitCount = 113 ID = 421
   1.298266 1  1A5             Tx   d 8 AF FF 01 00 00 00 00 00  Length = 242000 BitCount = 124 ID = 421
   1.300350 1  284             Tx   d 8 00 00 00 00 00 00 00 00  Length = 246000 BitCount = 126 ID = 644
   1.300373 1  285             Tx   d 8 00 00 00 00 00 00 00 00  Length = 248000 BitCount = 127 ID = 645
   1.301062 1  161             Tx   d 5 32 23 5E 00 10  Length = 172000 BitCount = 89 ID = 353
   1.301088 1  1F9             Tx   d 6 20 1E 1C 20 F8 FF  Length = 194000 BitCount = 100 ID = 505
   1.302238 1  181             Tx   d 8 1C 20 33 10 32 20 41 4E  Length = 228000 BitCount = 117 ID = 385
   1.309274 1  1A5             Tx   d 8 BF FF 01 00 00 00 00 00  Length = 238000 BitCount = 122 ID = 421
   1.310103 1  244             Tx   d 7 FE FE 00 00 00 00 FE  Length = 222000 BitCount = 114 ID = 580
   1.311032 1  161             Tx   d 5 32 23 5E 00 10  Length = 172000 BitCount = 89 ID = 353
   1.312060 1  1F9             Tx   d 6 20 1E 1C 2C F8 FF  Length = 192000 BitCount = 99 ID = 505
   1.312096 1  181             Tx   d 8 1C 2C 34 10 32 20 41 4E  Length = 232000 BitCount = 119 ID = 385
   1.318264 1  1A5             Tx   d 8 CF FF 01 00 00 00 00 00  Length = 242000 BitCount = 124 ID = 421
   1.320338 1  284             Tx   d 8 00 00 00 00 00 00 00 00  Length = 246000 BitCount = 126 ID = 644
   1.321056 1  285             Tx   d 8 00 00 00 00 00 00 00 00  Length = 248000 BitCount = 127 ID = 645
   1.322052 1  161             Tx   d 5 32 23 5E 00 10  Length = 172000 BitCount = 89 ID = 353
   1.322088 1  1F9             Tx   d 6 20 1E 1C 2C F8 FF  Length = 192000 BitCount = 99 ID = 505
   1.322100 1  181             Tx   d 8 1C 2C 34 10 32 20 41 4E  Length = 232000 BitCount = 119 ID = 385
   1.329040 1  1A5             Tx   d 8 DF FF 01 00 00 00 00 00  Length = 238000 BitCount = 122 ID = 421
   1.331042 1  244             Tx   d 7 FE FE 00 00 00 00 FE  Length = 222000 BitCount = 114 ID = 580
   1.331094 1  354             Tx   d 8 00 00 00 00 00 00 00 00  Length = 244000 BitCount = 125 ID = 852
   1.331108 1  161             Tx   d 5 32 23 5E 00 10  Length = 172000 BitCount = 89 ID = 353
   1.331120 1  1F9             Tx   d 6 20 1E 1C 2C F8 FF  Length = 192000 BitCount = 99 ID = 505
   1.332019 1  181             Tx   d 8 1C 2C 34 10 32 20 41 4E  Length = 232000 BitCount = 119 ID = 385
   1.334909 1  1A5             Tx   d 8 3F 20 35 FD AE 8E BB A0  Length = 226000 BitCount = 116 ID = 421
   1.337878 1  1A5             Tx   d 8 EF FF 01 00 00 00 00 00  Length = 240000 BitCount = 123 ID = 421
   1.341016 1  284             Tx   d 8 00 00 00 00 00 00 00 00  Length = 246000 BitCount = 126 ID = 644
   1.341060 1  285             Tx   d 8 00 00 00 00 00 00 00 00  Length = 248000 BitCount = 127 ID = 645
   1.341073 1  161             Tx   d 5 32 23 5E 00 10  Length = 172000 BitCount = 89 ID = 353
   1.341085 1  1F9             Tx   d 6 20 1E 1C 32 F8 FF  Length = 194000 BitCount = 100 ID = 505
   1.341931 1  181             Tx   d 8 1C 32 33 10 32 20 41 4E  Length = 228000 BitCount = 117 ID = 385
   1.348929 1  1A5             Tx   d 8 FF FF 01 00 00 00 00 00  Length = 240000 BitCount = 123 ID = 421
   1.351169 1  244             Tx   d 7 FE FE 00 00 00 00 FE  Length = 222000 BitCount = 114 ID = 580
   1.351179 1  161             Tx   d 5 32 23 5E 00 10  Length = 172000 BitCount = 89 ID = 353
   1.351182 1  1F9             Tx   d 6 20 1E 1C 32 F8 FF  Length = 194000 BitCount = 100 ID = 505
   1.352166 1  181             Tx   d 8 1C 32 33 10 32 20 41 4E  Length = 228000 BitCount = 117 ID = 385
   1.358149 1  1A5             Tx   d 8 0F FF 01 00 00 00 00 00  Length = 240000 BitCount = 123 ID = 421
   1.360190 1  284             Tx   d 8 00 00 00 00 00 00 00 00  Length = 246000 BitCount = 126 ID = 644
   1.360833 1  285             Tx   d 8 00 00 00 00 00 00 00 00  Length = 248000 BitCount = 127 ID = 645
   1.362285 1  161             Tx   d 5 32 23 5E 00 10  Length = 172000 BitCount = 89 ID = 353
   1.362300 1  1F9             Tx   d 6 20 1E 1C 32 F8 FF  Length = 194000 BitCount = 100 ID = 505
   1.362303 1  181             Tx   d 8 1C 32 33 10 32 20 41 4E  Length = 228000 BitCount = 117 ID = 385
   1.369200 1  1A5             Tx   d 8 1F FF 01 00 00 00 00 00  Length = 240000 BitCount = 123 ID = 421
   1.370199 1  244             Tx   d 7 FE FE 00 00 00 00 FE  Length = 222000 BitCount = 114 ID = 580
   1.370798 1  354             Tx   d 8 00 00 00 00 00 00 00 00  Length = 244000 BitCount = 125 ID = 852
   1.372232 1  161             Tx   d 5 32 23 5E 00 10  Length = 172000 BitCount = 89 ID = 353
   1.372248 1  1F9             Tx   d 6 20 1E 1C 34 F8 FF  Length = 194000 BitCount = 100 ID = 505
   1.372795 1  181             Tx   d 8 1C 34 33 10 32 20 41 4E  Length = 228000 BitCount = 117 ID = 385
   1.375144 1  1A5             Tx   d 8 25 6D 5C 5C 38 80 96 46  Length = 220000 BitCount = 113 ID = 421
   1.378866 1  1A5             Tx   d 8 2F FF 01 00 00 00 00 00  Length = 240000 BitCount = 123 ID = 421
   1.380781 1  284             Tx   d 8 00 00 00 00 00 00 00 00  Length = 246000 BitCount = 126 ID = 644
   1.380796 1  285             Tx   d 8 00 00 00 00 00 00 00 00  Length = 248000 BitCount = 127 ID = 645
   1.381769 1  161             Tx   d 5 32 23 5E 00 10  Length = 172000 BitCount = 89 ID = 353
   1.381777 1  551             Tx   d 8 68 5E 71 88 FF 7A 00 60  Length = 224000 BitCount = 115 ID = 1361
   1.381803 1  1F9             Tx   d 6 20 1E 1C 34 F8 FF  Length = 194000 BitCount = 100 ID = 505
   1.381806 1  181             Tx   d 8 1C 34 33 10 32 20 41 4E  Length = 228000 BitCount = 117 ID = 385
   1.381808 1  511             Tx   d 7 00 00 00 00 00 00 00  Length = 224000 BitCount = 115 ID = 1297
   1.382734 1  5DD             Tx   d 3 4C 00 00  Length = 144000 BitCount = 75 ID = 1501
   1.382741 1  65C             Tx   d 1 78  Length = 108000 BitCount = 57 ID = 1628
   1.389096 1  1A5             Tx   d 8 3F FF 01 00 00 00 00 00  Length = 242000 BitCount = 124 ID = 421
   1.390804 1  244             Tx   d 7 FE FE 00 00 00 00 FE  Length = 222000 BitCount = 114 ID = 580
   1.390814 1  161             Tx   d 5 32 23 5E 00 10  Length = 172000 BitCount = 89 ID = 353
   1.392208 1  1F9             Tx   d 6 20 1E 1C 34 F8 FF  Length = 194000 BitCount = 100 ID = 505
   1.392240 1  181             Tx   d 8 1C 34 33 10 32 20 41 4E  Length = 228000 BitCount = 117 ID = 385
   1.398118 1  1A5             Tx   d 8 4F FF 01 00 00 00 00 00  Length = 238000 BitCount = 122 ID = 421
   1.400777 1  284             Tx   d 8 00 00 00 00 00 00 00 00  Length = 246000 BitCount = 126 ID = 644
   1.400791 1  285             Tx   d 8 00 00 00 00 00 00 00 00  Length = 248000 BitCount = 127 ID = 645
   1.403081 1  161             Tx   d 5 32 23 5E 00 10  Length = 172000 BitCount = 89 ID = 353
   1.404066 1  1F9             Tx   d 6 20 1E 1C 34 F8 FF  Length = 194000 BitCount = 100 ID = 505
   1.404082 1  181             Tx   d 8 1C 34 33 10 32 20 41 4E  Length = 228000 BitCount = 117 ID = 385
   1.408718 1  1A5             Tx   d 8 5F FF 01 00 00 00 00 00  Length = 240000 BitCount = 123 ID = 421
   1.411046 1  244             Tx   d 7 FE FE 00 00 00 00 FE  Length = 222000 BitCount = 114 ID = 580
   1.411058 1  354             Tx   d 8 00 00 00 00 00 00 00 00  Length = 244000 BitCount = 125 ID = 852
   1.411060 1  161             Tx   d 5 32 23 5E 00 10  Length = 172000 BitCount = 89 ID = 353
   1.411062 1  1F9             Tx   d 6 20 1E 1C 0A F8 FF  Length = 194000 BitCount = 100 ID = 505
   1.411686 1  181             Tx   d 8 1C 0A 33 10 32 20 41 4E  Length = 228000 BitCount = 117 ID = 385
   1.418110 1  1A5             Tx   d 8 6F FF 01 00 00 00 00 00  Length = 238000 BitCount = 122 ID = 421
   1.420150 1  284             Tx   d 8 00 00 00 00 00 00 00 00  Length = 246000 BitCount = 126 ID = 644
   1.420678 1  285             Tx   d 8 00 00 00 00 00 00 00 00  Length = 248000 BitCount = 127 ID = 645
   1.420688 1  161             Tx   d 5 32 23 5E 00 10  Length = 172000 BitCount = 89 ID = 353
   1.422087 1  1F9             Tx   d 6 20 1E 1C 0A F8 FF  Length = 194000 BitCount = 100 ID = 505
   1.422103 1  181             Tx   d 8 1C 0A 33 10 32 20 41 4E  Length = 228000 BitCount = 117 ID = 385
   1.424165 1  1A5             Tx   d 8 D1 EE CF 37 41 29 13 AD  Length = 218000 BitCount = 112 ID = 421
   1.429000 1  1A5             Tx   d 8 7F FF 01 00 00 00 00 00  Length = 240000 BitCount = 123 ID = 421
   1.431003 1  244             Tx   d 7 FE FE 00 00 00 00 FE  Length = 222000 BitCount = 114 ID = 580
   1.431025 1  161             Tx   d 5 32 23 5E 00 10  Length = 172000 BitCount = 89 ID = 353
   1.431028 1  1F9             Tx   d 6 20 1E 1C 0A F8 FF  Length = 194000 BitCount = 100 ID = 505
   1.431956 1  181             Tx   d 8 1C 0A 33 10 32 20 41 4E  Length = 228000 BitCount = 117 ID = 385
   1.437951 1  1A5             Tx   d 8 8F FF 01 00 00 00 00 00  Length = 238000 BitCount = 122 ID = 421
   1.440927 1  284             Tx   d 8 00 00 00 00 00 00 00 00  Length = 246000 BitCount = 126 ID = 644
   1.440945 1  285             Tx   d 8 00 00 00 00 00 00 00 00  Length = 248000 BitCount = 127 ID = 645
   1.440949 1  161             Tx   d 5 32 23 5E 00 10  Length = 172000 BitCount = 89 ID = 353
   1.441849 1  1F9             Tx   d 6 20 1E 1C 0C F8 FF  Length = 194000 BitCount = 100 ID = 505
   1.441868 1  181             Tx   d 8 1C 0C 34 10 32 20 41 4E  Length = 232000 BitCount = 119 ID = 385
   1.448756 1  1A5             Tx   d 8 9F FF 01 00 00 00 00 00  Length = 238000 BitCount = 122 ID = 421
   1.450667 1  244             Tx   d 7 FE FE 00 00 00 00 FE  Length = 222000 BitCount = 114 ID = 580
   1.450683 1  354             Tx   d 8 00 00 00 00 00 00 00 00  Length = 244000 BitCount = 125 ID = 852
   1.450687 1  161             Tx   d 5 32 23 5E 00 10  Length = 172000 BitCount = 89 ID = 353
   1.451840 1  1F9             Tx   d 6 20 1E 1C 0C F8 FF  Length = 194000 BitCount = 100 ID = 505
   1.451880 1  181             Tx   d 8 1C 0C 34 10 32 20 41 4E  Length = 232000 BitCount = 119 ID = 385
   1.453922 1  1A5             Tx   d 8 B7 8A E8 99 89 76 55 03  Length = 218000 BitCount = 112 ID = 421
   1.457917 1  1A5             Tx   d 8 AF FF 01 00 00 00 00 00  Length = 242000 BitCount = 124 ID = 421
   1.460855 1  284             Tx   d 8 00 00 00 00 00 00 00 00  Length = 246000 BitCount = 126 ID = 644
   1.460894 1  285             Tx   d 8 00 00 00 00 00 00 00 00  Length = 248000 BitCount = 127 ID = 645
   1.460900 1  161             Tx   d 5 32 23 5E 00 10  Length = 172000 BitCount = 89 ID = 353
   1.461599 1  1F9             Tx   d 6 20 1E 1C 0C F8 FF  Length = 194000 BitCount = 100 ID = 505
   1.461621 1  181             Tx   d 8 1C 0C 34 10 32 20 41 4E  Length = 232000 BitCount = 119 ID = 385
   1.468855 1  1A5             Tx   d 8 BF FF 01 00 00 00 00 00  Length = 238000 BitCount = 122 ID = 421
   1.470866 1  244             Tx   d 7 FE FE 00 00 00 00 FE  Length = 222000 BitCount = 114 ID = 580
   1.472664 1  161             Tx   d 5 32 23 5E 00 10  Length = 172000 BitCount = 89 ID = 353
   1.472703 1  1F9             Tx   d 6 20 1E 1B F2 F8 FF  Length = 196000 BitCount = 101 ID = 505
   1.473622 1  181             Tx   d 8 1B F2 34 10 32 20 41 4E  Length = 230000 BitCount = 118 ID = 385
   1.474599 1  1A5             Tx   d 8 E5 AD 55 96 B3 C1 B0 85  Length = 220000 BitCount = 113 ID = 421
   1.478626 1  1A5             Tx   d 8 CF FF 01 00 00 00 00 00  Length = 242000 BitCount = 124 ID = 421
   1.480617 1  284             Tx   d 8 00 00 00 00 00 00 00 00  Length = 246000 BitCount = 126 ID = 644
   1.480663 1  285             Tx   d 8 00 00 00 00 00 00 00 00  Length = 248000 BitCount = 127 ID = 645
   1.481631 1  161             Tx   d 5 32 23 5E 00 10  Length = 172000 BitCount = 89 ID = 353
   1.481666 1  551             Tx   d 8 69 5E 71 88 FF 7A 00 60  Length = 226000 BitCount = 116 ID = 1361
   1.481678 1  1F9             Tx   d 6 20 1E 1B F2 F8 FF  Length = 196000 BitCount = 101 ID = 505
   1.482619 1  181             Tx   d 8 1B F2 34 10 32 20 41 4E  Length = 230000 BitCount = 118 ID = 385
   1.482657 1  511             Tx   d 7 00 00 00 00 00 00 00  Length = 224000 BitCount = 115 ID = 1297
   1.482669 1  5DD             Tx   d 3 4C 00 00  Length = 144000 BitCount = 75 ID = 1501
   1.482679 1  65C             Tx   d 1 78  Length = 108000 BitCount = 57 ID = 1628
   1.488596 1  1A5             Tx   d 8 DF FF 01 00 00 00 00 00  Length = 238000 BitCount = 122 ID = 421
   1.490588 1  244             Tx   d 7 FE FE 00 00 00 00 FE  Length = 222000 BitCount = 114 ID = 580
   1.490633 1  354             Tx   d 8 00 00 00 00 00 00 00 00  Length = 244000 BitCount = 125 ID = 852
   1.491612 1  161             Tx   d 5 32 23 5E 00 10  Length = 172000 BitCount = 89 ID = 353
   1.491648 1  1F9             Tx   d 6 20 1E 1B F2 F8 FF  Length = 196000 BitCount = 101 ID = 505
   1.491660 1  181             Tx   d 8 1B F2 34 10 32 20 41 4E  Length = 230000 BitCount = 118 ID = 385
   1.498533 1  1A5             Tx   d 8 EF FF 01 00 00 00 00 00  Length = 240000 BitCount = 123 ID = 421
   1.500524 1  284             Tx   d 8 00 00 00 00 00 00 00 00  Length = 246000 BitCount = 126 ID = 644
   1.500548 1  285             Tx   d 8 00 00 00 00 00 00 00 00  Length = 248000 BitCount = 127 ID = 645
   1.501514 1  161             Tx   d 5 32 23 5E 00 10  Length = 172000 BitCount = 89 ID = 353
   1.501533 1  1F9             Tx   d 6 20 1E 1B F2 F8 FF  Length = 196000 BitCount = 101 ID = 505
   1.501539 1  181             Tx   d 8 1B F2 34 10 32 20 41 4E  Length = 230000 BitCount = 118 ID = 385
   1.508755 1  1A5             Tx   d 8 FF FF 01 00 00 00 00 00  Length = 240000 BitCount = 123 ID = 421
   1.510811 1  244             Tx   d 7 FE FE 00 00 00 00 FE  Length = 222000 BitCount = 114 ID = 580
   1.512817 1  161             Tx   d 5 32 23 5E 00 10  Length = 172000 BitCount = 89 ID = 353
